! Mini-Circuits
! S2P DATA File Format
! Type: Coaxial Low Pass Filter
! Model: BFCN-1560+   
! Note: All S Parameters are in dB deg format
! TEST CONDITIONS: INPUT POWER = 0 dBm @Temperature = +25degC
! 401 Frequency points
!
# MHz S DB R 50
!    FREQ       dB(S11)   PHS(S11)  dB(S21)   PHS(S21)  dB(S12)   PHS(S12)  dB(S22)   PHS(S22) 
   50.000000    -0.086   173.596   -68.593   -70.930   -73.630  -170.062    -0.008   -11.223 
   70.000000    -0.113   171.613   -74.833   -96.950   -74.965   173.214    -0.001   -15.732 
   90.000000    -0.136   169.520   -72.945  -175.715   -68.212   147.628    -0.012   -20.110 
  110.000000    -0.159   167.519   -72.874   156.666   -72.069   151.346    -0.019   -24.741 
  130.000000    -0.174   165.314   -69.781   157.714   -69.592   152.757    -0.008   -29.052 
  150.000000    -0.168   163.240   -65.844   145.840   -66.500   150.496    -0.016   -33.472 
  170.000000    -0.169   160.965   -64.817   148.594   -63.932   139.850    -0.017   -37.950 
  190.000000    -0.184   158.884   -63.168   140.486   -62.576   141.626    -0.022   -42.330 
  210.000000    -0.191   156.669   -61.263   141.758   -60.913   139.334    -0.022   -46.487 
  230.000000    -0.209   154.643   -59.916   140.671   -58.834   138.443    -0.042   -50.781 
  250.000000    -0.223   152.518   -58.237   134.898   -58.752   131.536    -0.039   -55.066 
  270.000000    -0.234   150.320   -57.662   131.497   -57.196   133.064    -0.039   -59.331 
  290.000000    -0.238   148.259   -56.096   130.355   -55.986   127.837    -0.048   -63.510 
  310.000000    -0.249   145.989   -55.410   127.274   -55.270   125.174    -0.056   -67.675 
  330.000000    -0.258   143.892   -54.281   123.408   -54.029   122.559    -0.050   -71.793 
  350.000000    -0.266   141.724   -53.861   120.150   -53.717   120.982    -0.068   -75.828 
  370.000000    -0.273   139.531   -52.912   116.410   -52.890   118.164    -0.076   -79.830 
  390.000000    -0.272   137.334   -52.236   113.643   -52.388   114.272    -0.079   -83.817 
  410.000000    -0.281   135.082   -51.434   111.439   -51.707   112.620    -0.070   -87.694 
  430.000000    -0.295   132.890   -50.852   108.381   -50.915   108.020    -0.077   -91.503 
  450.000000    -0.308   130.641   -50.475   105.005   -50.523   106.014    -0.115   -95.399 
  470.000000    -0.300   128.392   -50.062   103.758   -50.137   103.293    -0.108   -99.243 
  490.000000    -0.321   126.170   -49.630   100.174   -49.719   100.573    -0.102  -102.850 
  510.000000    -0.328   123.846   -49.322    97.525   -49.224    96.943    -0.129  -106.706 
  530.000000    -0.327   121.541   -48.933    95.084   -48.842    94.424    -0.126  -110.377 
  550.000000    -0.338   119.251   -48.689    91.974   -48.587    91.551    -0.120  -113.967 
  570.000000    -0.346   116.907   -48.336    88.583   -48.445    89.867    -0.137  -117.474 
  590.000000    -0.363   114.512   -48.381    86.745   -48.253    87.040    -0.153  -121.165 
  610.000000    -0.359   112.181   -48.226    83.753   -48.226    83.954    -0.155  -124.682 
  630.000000    -0.370   109.779   -48.288    81.661   -48.241    81.804    -0.163  -128.035 
  650.000000    -0.391   107.440   -48.466    78.682   -48.370    78.984    -0.172  -131.516 
  670.000000    -0.386   104.884   -48.554    76.735   -48.520    77.191    -0.181  -134.978 
  690.000000    -0.398   102.397   -48.908    74.451   -48.795    74.741    -0.182  -138.377 
  710.000000    -0.409    99.850   -49.198    73.127   -49.186    72.805    -0.200  -141.690 
  730.000000    -0.407    97.326   -49.793    71.741   -49.734    71.523    -0.200  -145.162 
  750.000000    -0.426    94.735   -50.616    70.534   -50.611    70.856    -0.206  -148.542 
  770.000000    -0.441    92.130   -52.009    71.075   -51.783    71.270    -0.227  -151.765 
  790.000000    -0.451    89.431   -53.396    73.670   -53.464    74.232    -0.240  -155.153 
  810.000000    -0.450    86.773   -55.503    80.787   -55.485    81.299    -0.248  -158.408 
  830.000000    -0.465    83.928   -58.244    99.799   -58.243    98.129    -0.255  -161.746 
  850.000000    -0.476    81.228   -59.533   140.070   -59.659   137.700    -0.271  -165.041 
  870.000000    -0.499    78.306   -56.053   172.829   -55.970   172.519    -0.293  -168.366 
  890.000000    -0.500    75.379   -51.767  -173.175   -51.747  -173.282    -0.289  -171.813 
  910.000000    -0.527    72.447   -48.265  -167.974   -48.181  -168.184    -0.313  -174.940 
  930.000000    -0.536    69.276   -45.216  -166.606   -45.255  -166.810    -0.331  -178.464 
  950.000000    -0.556    66.159   -42.705  -167.121   -42.699  -167.215    -0.338   178.146 
  970.000000    -0.567    63.009   -40.408  -168.526   -40.395  -168.601    -0.364   174.679 
  990.000000    -0.591    59.684   -38.314  -170.671   -38.320  -170.437    -0.399   171.282 
 1010.000000    -0.614    56.132   -36.371  -173.218   -36.360  -173.235    -0.411   167.610 
 1040.000000    -0.669    50.740   -33.618  -177.734   -33.565  -177.686    -0.429   162.211 
 1050.000000    -0.673    48.947   -32.728  -179.264   -32.687  -179.294    -0.458   160.399 
 1070.000000    -0.700    45.010   -30.971   177.082   -30.967   177.075    -0.501   156.489 
 1100.000000    -0.764    38.952   -28.460   171.365   -28.436   171.319    -0.552   150.381 
 1110.000000    -0.793    36.753   -27.632   169.295   -27.606   169.247    -0.572   148.414 
 1130.000000    -0.832    32.334   -25.979   164.860   -25.984   164.925    -0.633   144.245 
 1150.000000    -0.893    27.611   -24.361   160.117   -24.341   160.089    -0.690   139.842 
 1170.000000    -0.973    22.649   -22.717   155.017   -22.670   155.129    -0.747   135.127 
 1190.000000    -1.062    17.286   -21.064   149.559   -21.045   149.566    -0.848   130.176 
 1210.000000    -1.180    11.500   -19.411   143.600   -19.396   143.659    -0.967   124.714 
 1230.000000    -1.327     5.275   -17.732   137.101   -17.710   136.912    -1.107   118.889 
 1250.000000    -1.521    -1.718   -16.015   129.676   -15.975   129.727    -1.287   112.625 
 1270.000000    -1.747    -9.209   -14.282   121.670   -14.277   121.673    -1.556   105.659 
 1290.000000    -2.113   -17.605   -12.542   112.545   -12.541   112.537    -1.907    97.813 
 1310.000000    -2.619   -27.089   -10.834   102.243   -10.799   102.173    -2.391    89.089 
 1330.000000    -3.310   -37.601    -9.156    90.471    -9.137    90.571    -3.072    79.572 
 1350.000000    -4.287   -49.113    -7.579    77.499    -7.570    77.400    -4.075    68.954 
 1370.000000    -5.751   -61.523    -6.193    63.008    -6.177    62.872    -5.485    57.619 
 1390.000000    -7.765   -74.188    -5.028    47.253    -5.013    47.269    -7.447    46.189 
 1410.000000   -10.533   -86.086    -4.136    31.040    -4.134    31.040   -10.116    35.922 
 1430.000000   -14.284   -95.487    -3.525    15.055    -3.512    14.908   -13.553    28.515 
 1450.000000   -19.369   -99.016    -3.120    -0.718    -3.120    -0.735   -17.805    27.148 
 1470.000000   -26.176   -85.406    -2.887   -15.721    -2.877   -15.703   -22.469    35.539 
 1500.000000   -29.198    -6.650    -2.688   -36.952    -2.674   -37.000   -27.950    63.125 
 1510.000000   -27.814     6.905    -2.665   -43.883    -2.643   -43.833   -29.702    70.596 
 1530.000000   -25.657    24.586    -2.616   -57.344    -2.608   -57.274   -37.208    85.304 
 1560.000000   -22.422    45.184    -2.611   -77.150    -2.603   -77.047   -29.394  -124.215 
 1570.000000   -21.153    48.910    -2.622   -83.734    -2.617   -83.696   -25.383  -124.368 
 1590.000000   -18.535    52.061    -2.674   -96.758    -2.666   -96.769   -20.161  -129.396 
 1620.000000   -15.299    47.086    -2.814  -116.303    -2.811  -116.417   -15.525  -139.823 
 1630.000000   -14.470    43.782    -2.875  -122.788    -2.869  -122.869   -14.426  -143.616 
 1650.000000   -13.175    35.682    -2.999  -135.995    -2.992  -135.948   -12.846  -151.468 
 1670.000000   -12.362    26.432    -3.142  -149.093    -3.146  -149.103   -11.789  -159.310 
 1690.000000   -11.975    16.456    -3.291  -162.695    -3.282  -162.679   -11.230  -166.401 
 1710.000000   -12.096     6.834    -3.428  -176.673    -3.424  -176.573   -11.174  -172.528 
 1730.000000   -12.865    -1.976    -3.578   168.562    -3.574   168.613   -11.667  -176.219 
 1750.000000   -14.419    -6.115    -3.780   152.671    -3.773   152.742   -12.719  -174.655 
 1770.000000   -16.396     2.191    -4.089   135.409    -4.080   135.355   -13.541  -162.606 
 1790.000000   -15.671    25.148    -4.647   116.506    -4.635   116.585   -12.207  -144.259 
 1810.000000   -11.893    32.739    -5.589    96.642    -5.577    96.629    -9.131  -136.724 
 1830.000000    -8.643    24.133    -6.989    76.756    -6.982    76.740    -6.343  -140.452 
 1850.000000    -6.452     9.683    -8.813    58.099    -8.809    58.096    -4.378  -148.716 
 1870.000000    -5.078    -5.990   -10.969    41.461   -10.951    41.428    -3.116  -157.874 
 1890.000000    -4.215   -21.317   -13.317    26.920   -13.308    26.901    -2.308  -166.562 
 1910.000000    -3.686   -35.986   -15.772    14.279   -15.750    14.166    -1.766  -174.509 
 1930.000000    -3.311   -49.699   -18.274     3.280   -18.254     3.306    -1.426   178.671 
 1950.000000    -3.068   -62.755   -20.842    -6.245   -20.839    -6.145    -1.180   172.550 
 1970.000000    -2.881   -75.173   -23.507   -14.356   -23.476   -14.448    -1.025   167.105 
 1990.000000    -2.742   -87.129   -26.234   -21.232   -26.233   -21.257    -0.902   162.277 
 2010.000000    -2.611   -98.492   -29.185   -26.440   -29.164   -26.439    -0.799   157.915 
 2030.000000    -2.494  -109.450   -32.370   -29.482   -32.363   -29.608    -0.730   153.669 
 2050.000000    -2.374  -119.891   -35.908   -29.061   -35.893   -29.062    -0.671   149.773 
 2070.000000    -2.284  -129.868   -39.815   -21.496   -39.743   -21.475    -0.620   146.344 
 2100.000000    -2.150  -144.328   -44.202    14.675   -44.198    14.475    -0.580   141.452 
 2105.000000    -2.112  -146.636   -44.365    22.211   -44.216    22.102    -0.574   140.662 
 2130.000000    -1.996  -157.583   -42.536    48.643   -42.541    48.438    -0.528   136.863 
 2150.000000    -1.902  -165.928   -40.810    56.284   -40.737    56.248    -0.492   134.036 
 2170.000000    -1.805  -173.967   -39.338    58.276   -39.349    58.658    -0.487   131.188 
 2190.000000    -1.713   178.458   -38.318    57.806   -38.305    57.516    -0.471   128.553 
 2210.000000    -1.639   171.214   -37.537    55.876   -37.545    55.877    -0.468   126.143 
 2230.000000    -1.568   164.206   -36.937    52.982   -36.912    53.256    -0.446   123.649 
 2250.000000    -1.477   157.600   -36.451    50.075   -36.471    50.254    -0.430   121.182 
 2270.000000    -1.415   151.509   -36.085    47.109   -36.071    46.968    -0.418   118.827 
 2290.000000    -1.361   145.416   -35.789    43.924   -35.757    43.748    -0.402   116.670 
 2310.000000    -1.297   139.535   -35.491    40.394   -35.521    40.538    -0.401   114.441 
 2330.000000    -1.220   134.025   -35.275    37.056   -35.276    37.005    -0.388   112.171 
 2350.000000    -1.169   128.930   -35.099    33.823   -35.108    33.986    -0.385   110.109 
 2370.000000    -1.132   123.874   -34.960    30.531   -34.951    30.674    -0.374   108.061 
 2390.000000    -1.076   118.937   -34.787    27.499   -34.802    27.351    -0.378   105.986 
 2410.000000    -1.036   114.429   -34.671    24.499   -34.643    24.406    -0.358   103.983 
 2430.000000    -0.996   109.927   -34.565    21.543   -34.544    21.438    -0.355   102.107 
 2450.000000    -0.955   105.557   -34.450    18.321   -34.442    18.357    -0.369   100.196 
 2470.000000    -0.913   101.491   -34.371    15.615   -34.362    15.481    -0.366    98.140 
 2490.000000    -0.882    97.431   -34.290    12.833   -34.282    12.743    -0.352    96.231 
 2510.000000    -0.853    93.574   -34.179    10.149   -34.188    10.193    -0.341    94.528 
 2530.000000    -0.820    89.743   -34.101     7.586   -34.108     7.657    -0.346    92.593 
 2550.000000    -0.792    86.238   -34.020     5.205   -34.019     5.137    -0.346    90.889 
 2570.000000    -0.771    82.666   -33.914     2.810   -33.893     2.629    -0.323    89.223 
 2590.000000    -0.752    79.135   -33.826     0.219   -33.811     0.469    -0.337    87.364 
 2610.000000    -0.736    75.853   -33.737    -2.095   -33.698    -2.162    -0.345    85.537 
 2630.000000    -0.704    72.601   -33.621    -4.387   -33.607    -4.343    -0.326    83.962 
 2650.000000    -0.687    69.356   -33.550    -6.747   -33.528    -6.759    -0.327    82.265 
 2670.000000    -0.667    66.262   -33.467    -9.072   -33.449    -8.934    -0.339    80.560 
 2690.000000    -0.636    63.342   -33.359   -11.080   -33.336   -11.304    -0.322    78.826 
 2710.000000    -0.640    60.309   -33.244   -13.375   -33.247   -13.469    -0.330    77.213 
 2730.000000    -0.620    57.304   -33.149   -15.588   -33.155   -15.700    -0.331    75.504 
 2750.000000    -0.602    54.500   -33.074   -17.719   -33.045   -18.009    -0.329    73.862 
 2770.000000    -0.597    51.691   -32.996   -20.016   -32.957   -20.164    -0.310    72.335 
 2790.000000    -0.580    49.007   -32.909   -22.185   -32.871   -22.094    -0.320    70.861 
 2810.000000    -0.560    46.268   -32.806   -24.317   -32.815   -24.358    -0.336    69.206 
 2830.000000    -0.549    43.703   -32.750   -26.353   -32.720   -26.575    -0.304    67.544 
 2850.000000    -0.548    41.024   -32.694   -28.505   -32.659   -28.509    -0.310    66.057 
 2870.000000    -0.531    38.434   -32.617   -30.402   -32.613   -30.469    -0.318    64.519 
 2890.000000    -0.518    35.958   -32.545   -32.413   -32.544   -32.476    -0.315    63.004 
 2910.000000    -0.517    33.568   -32.496   -34.301   -32.460   -34.370    -0.312    61.525 
 2930.000000    -0.510    31.007   -32.435   -36.224   -32.418   -36.144    -0.317    59.990 
 2950.000000    -0.509    28.560   -32.366   -38.098   -32.371   -38.140    -0.315    58.383 
 2970.000000    -0.491    26.184   -32.296   -39.811   -32.307   -40.026    -0.309    56.763 
 2990.000000    -0.488    23.843   -32.254   -41.733   -32.248   -41.857    -0.302    55.439 
 3010.000000    -0.473    21.467   -32.190   -43.529   -32.173   -43.486    -0.317    53.927 
 3030.000000    -0.464    19.240   -32.115   -45.168   -32.118   -45.269    -0.309    52.447 
 3050.000000    -0.474    16.966   -32.075   -46.889   -32.041   -47.074    -0.308    50.895 
 3070.000000    -0.467    14.685   -32.020   -48.757   -31.992   -48.716    -0.309    49.530 
 3090.000000    -0.447    12.411   -31.948   -50.513   -31.949   -50.621    -0.314    47.980 
 3110.000000    -0.447    10.300   -31.892   -51.973   -31.894   -52.228    -0.312    46.527 
 3130.000000    -0.446     8.197   -31.832   -53.772   -31.841   -53.821    -0.316    45.107 
 3150.000000    -0.439     5.877   -31.765   -55.461   -31.744   -55.580    -0.318    43.676 
 3170.000000    -0.425     3.770   -31.686   -57.297   -31.705   -57.445    -0.322    42.184 
 3190.000000    -0.446     1.625   -31.674   -58.985   -31.612   -59.054    -0.316    40.735 
 3210.000000    -0.427    -0.498   -31.604   -60.957   -31.593   -60.791    -0.319    39.452 
 3230.000000    -0.423    -2.671   -31.560   -62.536   -31.556   -62.570    -0.319    38.016 
 3250.000000    -0.405    -4.620   -31.497   -64.127   -31.504   -64.224    -0.308    36.530 
 3270.000000    -0.417    -6.715   -31.480   -65.849   -31.452   -65.954    -0.307    35.128 
 3290.000000    -0.416    -8.829   -31.447   -67.714   -31.450   -67.691    -0.314    33.741 
 3310.000000    -0.415   -10.918   -31.413   -69.347   -31.406   -69.449    -0.331    32.237 
 3330.000000    -0.405   -12.870   -31.382   -70.847   -31.401   -70.959    -0.310    30.826 
 3350.000000    -0.411   -14.879   -31.368   -72.412   -31.380   -72.362    -0.316    29.672 
 3370.000000    -0.387   -16.915   -31.324   -74.212   -31.351   -74.151    -0.326    28.169 
 3390.000000    -0.396   -18.869   -31.317   -75.810   -31.322   -75.697    -0.320    26.772 
 3410.000000    -0.402   -20.826   -31.336   -77.402   -31.300   -77.345    -0.319    25.363 
 3430.000000    -0.401   -22.941   -31.323   -78.934   -31.311   -78.764    -0.333    23.997 
 3450.000000    -0.405   -24.866   -31.297   -80.399   -31.300   -80.353    -0.339    22.590 
 3470.000000    -0.400   -26.800   -31.306   -81.906   -31.264   -81.935    -0.316    21.188 
 3490.000000    -0.407   -28.700   -31.307   -83.515   -31.268   -83.432    -0.332    19.972 
 3510.000000    -0.388   -30.743   -31.285   -85.155   -31.284   -85.006    -0.345    18.522 
 3530.000000    -0.380   -32.588   -31.278   -86.494   -31.280   -86.713    -0.337    17.071 
 3550.000000    -0.388   -34.611   -31.301   -88.080   -31.273   -88.010    -0.337    15.731 
 3570.000000    -0.399   -36.549   -31.326   -89.602   -31.306   -89.491    -0.336    14.480 
 3590.000000    -0.393   -38.429   -31.301   -91.024   -31.298   -91.029    -0.343    13.080 
 3610.000000    -0.394   -40.248   -31.341   -92.522   -31.322   -92.577    -0.330    11.645 
 3630.000000    -0.393   -42.197   -31.359   -94.273   -31.319   -94.041    -0.330    10.384 
 3650.000000    -0.381   -44.235   -31.379   -95.819   -31.390   -95.575    -0.348     8.988 
 3670.000000    -0.377   -46.027   -31.418   -97.041   -31.437   -97.280    -0.328     7.510 
 3690.000000    -0.387   -47.885   -31.489   -98.629   -31.442   -98.458    -0.324     6.265 
 3710.000000    -0.401   -49.860   -31.554  -100.095   -31.529   -99.738    -0.346     5.029 
 3730.000000    -0.389   -51.732   -31.608  -101.404   -31.593  -101.445    -0.350     3.545 
 3750.000000    -0.400   -53.612   -31.675  -103.025   -31.638  -102.994    -0.336     2.212 
 3770.000000    -0.396   -55.557   -31.785  -104.305   -31.745  -104.347    -0.336     0.939 
 3790.000000    -0.386   -57.549   -31.873  -105.499   -31.857  -105.535    -0.350    -0.436 
 3810.000000    -0.401   -59.280   -31.952  -106.763   -31.968  -106.740    -0.360    -1.797 
 3830.000000    -0.397   -61.115   -32.052  -108.095   -32.013  -108.047    -0.334    -3.154 
 3850.000000    -0.399   -63.206   -32.166  -109.513   -32.149  -109.305    -0.356    -4.447 
 3870.000000    -0.391   -65.059   -32.291  -110.542   -32.261  -110.554    -0.365    -5.874 
 3890.000000    -0.399   -66.918   -32.445  -111.741   -32.399  -111.891    -0.339    -7.343 
 3910.000000    -0.412   -68.848   -32.607  -112.950   -32.577  -112.938    -0.363    -8.467 
 3930.000000    -0.398   -70.802   -32.781  -114.056   -32.759  -113.963    -0.350    -9.798 
 3950.000000    -0.407   -72.614   -32.976  -114.988   -32.989  -115.158    -0.369   -11.250 
 3970.000000    -0.425   -74.535   -33.230  -115.803   -33.199  -115.967    -0.363   -12.673 
 3990.000000    -0.413   -76.535   -33.445  -116.819   -33.433  -116.627    -0.352   -13.882 
 4010.000000    -0.405   -78.513   -33.708  -117.379   -33.697  -117.455    -0.378   -15.356 
 4030.000000    -0.423   -80.410   -34.015  -117.975   -34.000  -117.975    -0.375   -16.658 
 4050.000000    -0.431   -82.407   -34.336  -118.415   -34.321  -118.551    -0.357   -18.013 
 4070.000000    -0.423   -84.409   -34.682  -118.644   -34.702  -118.564    -0.366   -19.270 
 4090.000000    -0.435   -86.393   -35.121  -118.747   -35.132  -118.690    -0.384   -20.734 
 4110.000000    -0.452   -88.302   -35.607  -118.245   -35.576  -118.356    -0.363   -22.134 
 4130.000000    -0.462   -90.455   -36.118  -117.507   -36.097  -117.361    -0.374   -23.361 
 4150.000000    -0.449   -92.455   -36.673  -115.941   -36.698  -116.025    -0.378   -24.712 
 4170.000000    -0.464   -94.406   -37.336  -113.666   -37.377  -113.901    -0.381   -26.136 
 4200.000000    -0.489   -97.724   -38.452  -108.475   -38.486  -108.428    -0.391   -28.197 
 4210.000000    -0.487   -98.793   -38.823  -105.767   -38.841  -105.641    -0.395   -28.844 
