#  HZ   S   DB   R     50.00 
! Rohde & Schwarz Vector Network Analyzer 
! Rohde-Schwarz,ZNA26-4Port,1332450024101475,2.90
! Created: UTC 5/21/2025, 7:05:56 PM
! freq[Hz]                db:S11                  ang:S11
 1.000000000000000E7    -2.686325018320619E1     1.746919580638162E2
 2.000000000000000E7    -2.763584425716816E1     1.684755488581239E2
 3.000000000000000E7    -3.273545622089169E1     1.617287152634795E2
 4.000000000000000E7    -3.595059978394663E1     1.585961052924086E2
 5.000000000000000E7    -3.899935790505447E1     1.543047196983826E2
 6.000000000000000E7    -4.098505491901015E1     1.530310260718188E2
 7.000000000000000E7    -4.256481668830097E1     1.501681660180384E2
 8.000000000000000E7    -4.432704793473767E1     1.497337283831762E2
 9.000000000000000E7    -4.563785878363807E1     1.489422007957415E2
 1.000000000000000E8    -4.745951979773253E1     1.495982606774575E2
 1.100000000000000E8    -4.878200398238391E1     1.483462628371766E2
 1.200000000000000E8    -5.023823971305688E1     1.459103061398608E2
 1.300000000000000E8    -5.121603315886414E1     1.486694876118782E2
 1.400000000000000E8    -5.300295632448447E1     1.451847405961489E2
 1.500000000000000E8    -5.381456216039821E1     1.463283715809012E2
 1.600000000000000E8    -5.550790489594073E1     1.442460070274105E2
 1.700000000000000E8    -5.722210827994943E1     1.464332398183605E2
 1.800000000000000E8    -5.815606268824691E1     1.444975452368823E2
 1.900000000000000E8    -6.019703671507024E1     1.408134486455568E2
 2.000000000000000E8    -6.132717396931813E1     1.485644079715449E2
 2.100000000000000E8    -6.302673456015790E1     1.429053963145007E2
 2.200000000000000E8    -6.695490741794639E1     1.633484854710638E2
 2.300000000000000E8    -6.745077574323238E1     1.757858212362796E2
 2.400000000000000E8    -7.094027385089694E1    -1.724585182891027E2
 2.500000000000000E8    -7.049498402377966E1    -1.547720022514653E2
 2.600000000000000E8    -7.119558033745851E1    -1.070790785468868E2
 2.700000000000000E8    -6.848369426453884E1    -9.133380851209226E1
 2.800000000000000E8    -6.562556977329129E1    -9.215899187515939E1
 2.900000000000000E8    -6.380900222832381E1    -7.903877395604826E1
 3.000000000000000E8    -6.209451833639776E1    -6.852796935427932E1
 3.100000000000000E8    -6.112112828058378E1    -6.750158803857961E1
 3.200000000000000E8    -6.028118134680870E1    -6.844751345797589E1
 3.300000000000000E8    -5.878336607192161E1    -6.653341082078894E1
 3.400000000000000E8    -5.774430332453586E1    -6.633770229495981E1
 3.500000000000000E8    -5.728675674608467E1    -6.470612433222557E1
 3.600000000000000E8    -5.718350245613861E1    -6.176033157263974E1
 3.700000000000000E8    -5.628393811186115E1    -6.399606944680755E1
 3.800000000000000E8    -5.576570050930436E1    -6.731081589446768E1
 3.900000000000000E8    -5.475201688215491E1    -6.780202908086579E1
 4.000000000000000E8    -5.358661449037782E1    -7.132701257037341E1
 4.100000000000000E8    -5.348064781869437E1    -7.375869878961197E1
 4.200000000000000E8    -5.294102030697751E1    -7.404328926766505E1
 4.300000000000000E8    -5.245956496070526E1    -7.337554711799540E1
 4.400000000000000E8    -5.183809007809286E1    -7.347714712332825E1
 4.500000000000000E8    -5.136420279712530E1    -7.440429848073953E1
 4.600000000000000E8    -5.072705253153235E1    -7.461908829063987E1
 4.700000000000000E8    -5.028806956331637E1    -7.380942068754079E1
 4.800000000000000E8    -5.005588176877133E1    -7.487436121743949E1
 4.900000000000000E8    -4.976696936255057E1    -7.267342133814751E1
 5.000000000000000E8    -4.965615096203987E1    -7.185791908420541E1
 5.100000000000000E8    -4.933637453001535E1    -7.259758646855295E1
 5.200000000000000E8    -4.939258537658586E1    -7.390319383400836E1
 5.300000000000000E8    -4.924985019998455E1    -7.352731709370391E1
 5.400000000000000E8    -4.916300594733441E1    -7.555880851201692E1
 5.500000000000000E8    -4.900568577633799E1    -7.704853722639757E1
 5.600000000000000E8    -4.871829194279003E1    -7.834187680695460E1
 5.700000000000000E8    -4.835207192004738E1    -8.134930444535594E1
 5.800000000000000E8    -4.828668987006132E1    -8.182366288993947E1
 5.900000000000000E8    -4.788115857879349E1    -8.353710141397036E1
 6.000000000000000E8    -4.734912245983093E1    -8.414523287201297E1
 6.100000000000000E8    -4.693131892079614E1    -8.404728477236561E1
 6.200000000000000E8    -4.651099760779541E1    -8.340869270406084E1
 6.300000000000000E8    -4.623914694480153E1    -8.251757620634926E1
 6.400000000000000E8    -4.608483854733480E1    -8.272589955372570E1
 6.500000000000000E8    -4.572934015611310E1    -8.180275521376301E1
 6.600000000000000E8    -4.559131484671219E1    -8.137340828174132E1
 6.700000000000000E8    -4.550932554347905E1    -8.012139771636532E1
 6.800000000000000E8    -4.538389772819129E1    -8.029608514159021E1
 6.900000000000000E8    -4.547055623881021E1    -8.053810623474730E1
 7.000000000000000E8    -4.545844673864253E1    -8.030415061796559E1
 7.100000000000000E8    -4.544593054720816E1    -8.188832840055787E1
 7.200000000000000E8    -4.540894309793251E1    -8.330374311367423E1
 7.300000000000000E8    -4.532361255644089E1    -8.443435059426170E1
 7.400000000000000E8    -4.522240126194067E1    -8.696348238851193E1
 7.500000000000000E8    -4.500355664957446E1    -8.812000714450465E1
 7.600000000000000E8    -4.466040630662917E1    -8.917125163536393E1
 7.700000000000000E8    -4.441727429723264E1    -8.987238661134951E1
 7.800000000000000E8    -4.412533725608559E1    -9.124491861045672E1
 7.900000000000000E8    -4.373971478901975E1    -9.172618713710888E1
 8.000000000000000E8    -4.346659169822749E1    -9.119211775802675E1
 8.100000000000000E8    -4.332186568310793E1    -9.087985931277922E1
 8.200000000000000E8    -4.305109987817897E1    -9.024605467185410E1
 8.300000000000000E8    -4.291577685954174E1    -8.949727384860522E1
 8.400000000000000E8    -4.282688140522173E1    -8.842842033177244E1
 8.500000000000000E8    -4.277481619301516E1    -8.809962612906457E1
 8.600000000000000E8    -4.281070368809634E1    -8.792935605600057E1
 8.700000000000000E8    -4.273470676506207E1    -8.772681868027982E1
 8.800000000000000E8    -4.270776082296847E1    -8.851264326293344E1
 8.900000000000000E8    -4.274922255379471E1    -8.888727345346126E1
 9.000000000000000E8    -4.267074861182071E1    -8.981994578502139E1
 9.100000000000000E8    -4.261644858730450E1    -9.082564175225698E1
 9.200000000000000E8    -4.240340095554017E1    -9.238593477868164E1
 9.300000000000000E8    -4.219562915237339E1    -9.318866432191292E1
 9.400000000000000E8    -4.200065796134847E1    -9.386091552940599E1
 9.500000000000000E8    -4.177442973269676E1    -9.430915341065936E1
 9.600000000000000E8    -4.156797004970286E1    -9.518106555228724E1
 9.700000000000000E8    -4.134082386913259E1    -9.530900205483125E1
 9.800000000000000E8    -4.115598719105412E1    -9.483762187010839E1
 9.900000000000000E8    -4.091878575498239E1    -9.472540602835109E1
 1.000000000000000E9    -4.080033217350771E1    -9.468906978370008E1
 1.010000000000000E9    -4.072202587098140E1    -9.430956651310996E1
 1.020000000000000E9    -4.068671143831642E1    -9.407860602650749E1
 1.030000000000000E9    -4.064707955457508E1    -9.406279188204562E1
 1.040000000000000E9    -4.062288726760855E1    -9.396689949811429E1
 1.050000000000000E9    -4.060799737526680E1    -9.419066866475929E1
 1.060000000000000E9    -4.057323757995744E1    -9.473625218452719E1
 1.070000000000000E9    -4.049006652208166E1    -9.553455924895520E1
 1.080000000000000E9    -4.046747850162942E1    -9.658177448384357E1
 1.090000000000000E9    -4.041432150124621E1    -9.752427878747896E1
 1.100000000000000E9    -4.024402722338291E1    -9.826934522521590E1
 1.110000000000000E9    -4.007111977352398E1    -9.907116386682789E1
 1.120000000000000E9    -3.990176932178669E1    -9.956445375054074E1
 1.130000000000000E9    -3.971847098671925E1    -9.995154934228815E1
 1.140000000000000E9    -3.953265276060677E1    -9.993033838451872E1
 1.150000000000000E9    -3.937250135553641E1    -9.991111227387145E1
 1.160000000000000E9    -3.926893953838551E1    -9.984602611955141E1
 1.170000000000000E9    -3.916386438730221E1    -9.974829585132262E1
 1.180000000000000E9    -3.906362336745001E1    -9.954174683119354E1
 1.190000000000000E9    -3.900058214504787E1    -9.914375241031438E1
 1.200000000000000E9    -3.897443401309992E1    -9.925765056981969E1
 1.210000000000000E9    -3.893692800504115E1    -9.956148824789514E1
 1.220000000000000E9    -3.890934479000815E1    -1.002055217747273E2
 1.230000000000000E9    -3.885665537610198E1    -1.009349126953986E2
 1.240000000000000E9    -3.880530246217822E1    -1.017578399910484E2
 1.250000000000000E9    -3.870931782183531E1    -1.026584789648508E2
 1.260000000000000E9    -3.861915927689992E1    -1.035348093324433E2
 1.270000000000000E9    -3.851339717270089E1    -1.042097117994080E2
 1.280000000000000E9    -3.837701760596092E1    -1.049380226319539E2
 1.290000000000000E9    -3.822753441278038E1    -1.055449032539154E2
 1.300000000000000E9    -3.805552561571697E1    -1.058910158675252E2
 1.310000000000000E9    -3.789103446239469E1    -1.060859811710679E2
 1.320000000000000E9    -3.778537402459838E1    -1.059900028117597E2
 1.330000000000000E9    -3.769614856085072E1    -1.058208249170353E2
 1.340000000000000E9    -3.761068814229797E1    -1.055149997055476E2
 1.350000000000000E9    -3.756180090714123E1    -1.052001779393112E2
 1.360000000000000E9    -3.753958959931618E1    -1.052571197899965E2
 1.370000000000000E9    -3.754416170080449E1    -1.052967332095315E2
 1.380000000000000E9    -3.755907777207376E1    -1.051794226403840E2
 1.390000000000000E9    -3.756487525134245E1    -1.053375058750950E2
 1.400000000000000E9    -3.758722583798112E1    -1.056805213040468E2
 1.410000000000000E9    -3.762276139272518E1    -1.062301909023796E2
 1.420000000000000E9    -3.760399789937387E1    -1.067489515357125E2
 1.430000000000000E9    -3.754388294233853E1    -1.074782586977471E2
 1.440000000000000E9    -3.747895678278098E1    -1.081343617923562E2
 1.450000000000000E9    -3.738140599536769E1    -1.088073819191950E2
 1.460000000000000E9    -3.727978936595338E1    -1.092577306009129E2
 1.470000000000000E9    -3.715819487598595E1    -1.096812493013525E2
 1.480000000000000E9    -3.706525915860557E1    -1.097678563992476E2
 1.490000000000000E9    -3.694704931526414E1    -1.100064058885417E2
 1.500000000000000E9    -3.684654361748200E1    -1.100605662936597E2
 1.510000000000000E9    -3.678167256579527E1    -1.100852973081673E2
 1.520000000000000E9    -3.668211676737386E1    -1.098441685850190E2
 1.530000000000000E9    -3.662950180546655E1    -1.095954901392266E2
 1.540000000000000E9    -3.661059130838084E1    -1.094555104549057E2
 1.550000000000000E9    -3.660733259195278E1    -1.094685949154259E2
 1.560000000000000E9    -3.662099502987307E1    -1.094804010492482E2
 1.570000000000000E9    -3.664285963056746E1    -1.096666779034080E2
 1.580000000000000E9    -3.664830422711467E1    -1.099780329959243E2
 1.590000000000000E9    -3.665281998016054E1    -1.104043197336137E2
 1.600000000000000E9    -3.662601163625374E1    -1.111125410390765E2
 1.610000000000000E9    -3.660614553062707E1    -1.119203717846723E2
 1.620000000000000E9    -3.652030635417344E1    -1.124648442665694E2
 1.630000000000000E9    -3.643643085033535E1    -1.129638455474931E2
 1.640000000000000E9    -3.635721740425910E1    -1.135161201794299E2
 1.650000000000000E9    -3.624918373489771E1    -1.138854964974607E2
 1.660000000000000E9    -3.614784172002066E1    -1.141255495480682E2
 1.670000000000000E9    -3.606819992203289E1    -1.141257435520817E2
 1.680000000000000E9    -3.597143349450199E1    -1.142643226869868E2
 1.690000000000000E9    -3.591551352922561E1    -1.141456018460825E2
 1.700000000000000E9    -3.585500325798367E1    -1.139544364476239E2
 1.710000000000000E9    -3.582425430756751E1    -1.138177337349987E2
 1.720000000000000E9    -3.578968779776865E1    -1.138299513018808E2
 1.730000000000000E9    -3.577793484434339E1    -1.139119420023539E2
 1.740000000000000E9    -3.578844111386279E1    -1.139434945712793E2
 1.750000000000000E9    -3.582957407263250E1    -1.140488186870949E2
 1.760000000000000E9    -3.582631701631244E1    -1.143887574333441E2
 1.770000000000000E9    -3.583186439612370E1    -1.150484373610092E2
 1.780000000000000E9    -3.579071932188883E1    -1.155899194714611E2
 1.790000000000000E9    -3.575391388960521E1    -1.162152292656698E2
 1.800000000000000E9    -3.569996081736826E1    -1.166940933156405E2
 1.810000000000000E9    -3.564320804446209E1    -1.172968738952623E2
 1.820000000000000E9    -3.551389574574547E1    -1.176836403509013E2
 1.830000000000000E9    -3.544599679655056E1    -1.179017076915859E2
 1.840000000000000E9    -3.535254322173766E1    -1.180001460730764E2
 1.850000000000000E9    -3.525901301607735E1    -1.179195844814576E2
 1.860000000000000E9    -3.519578140945170E1    -1.178800450597435E2
 1.870000000000000E9    -3.515068949396224E1    -1.177594234059001E2
 1.880000000000000E9    -3.509303061513758E1    -1.175587490724075E2
 1.890000000000000E9    -3.505987078178488E1    -1.173770517030738E2
 1.900000000000000E9    -3.507939453752460E1    -1.172682233616895E2
 1.910000000000000E9    -3.510576951035168E1    -1.173146331686947E2
 1.920000000000000E9    -3.512827765692199E1    -1.174440700513466E2
 1.930000000000000E9    -3.516757028011381E1    -1.176982025340770E2
 1.940000000000000E9    -3.517367845363430E1    -1.179706728987418E2
 1.950000000000000E9    -3.516985168351214E1    -1.183236958700399E2
 1.960000000000000E9    -3.515599121563697E1    -1.189695029360684E2
 1.970000000000000E9    -3.512523513552534E1    -1.195275988110061E2
 1.980000000000000E9    -3.506847403532429E1    -1.202340235548264E2
 1.990000000000000E9    -3.499356002235697E1    -1.207000061187133E2
 2.000000000000000E9    -3.490400803126170E1    -1.210837007479331E2
 2.010000000000000E9    -3.468758790829382E1    -1.215192617381387E2
 2.020000000000000E9    -3.446974047060782E1    -1.217518513937293E2
 2.030000000000000E9    -3.438352673807289E1    -1.218594194685251E2
 2.040000000000000E9    -3.431971044038154E1    -1.216843590565623E2
 2.050000000000000E9    -3.425939611442406E1    -1.215772786839300E2
 2.060000000000000E9    -3.422626617662837E1    -1.213127897228819E2
 2.070000000000000E9    -3.421211896009763E1    -1.210731900616739E2
 2.080000000000000E9    -3.422088349627264E1    -1.209061694851013E2
 2.090000000000000E9    -3.423579125009005E1    -1.208120657867230E2
 2.100000000000000E9    -3.426415346335614E1    -1.208024937871923E2
 2.110000000000000E9    -3.428123879069864E1    -1.209743384626203E2
 2.120000000000000E9    -3.431073637812181E1    -1.213757991018161E2
 2.130000000000000E9    -3.430362745386611E1    -1.218086544533225E2
 2.140000000000000E9    -3.427546154527846E1    -1.222923286186074E2
 2.150000000000000E9    -3.424776153300114E1    -1.228806049285603E2
 2.160000000000000E9    -3.419520476600152E1    -1.233557749242958E2
 2.170000000000000E9    -3.412732814791906E1    -1.238291858333962E2
 2.180000000000000E9    -3.404100650364399E1    -1.241685938516561E2
 2.190000000000000E9    -3.394496190832096E1    -1.243529780693174E2
 2.200000000000000E9    -3.385483871682903E1    -1.244316746771407E2
 2.210000000000000E9    -3.376832248264414E1    -1.243385808779276E2
 2.220000000000000E9    -3.370421087596712E1    -1.240732786221100E2
 2.230000000000000E9    -3.366378994665985E1    -1.237552597618981E2
 2.240000000000000E9    -3.364714585323027E1    -1.233984186462512E2
 2.250000000000000E9    -3.363947772320030E1    -1.231952974527860E2
 2.260000000000000E9    -3.365377511944275E1    -1.231116037080683E2
 2.270000000000000E9    -3.367011475588966E1    -1.230076841578715E2
 2.280000000000000E9    -3.371793671418712E1    -1.231020292197256E2
 2.290000000000000E9    -3.375126298601133E1    -1.233391327504461E2
 2.300000000000000E9    -3.375939291338095E1    -1.237458180437649E2
 2.310000000000000E9    -3.376576245721744E1    -1.241146663466016E2
 2.320000000000000E9    -3.375591625321819E1    -1.246554895777577E2
 2.330000000000000E9    -3.371970121257243E1    -1.251642691292141E2
 2.340000000000000E9    -3.364088317850513E1    -1.256794784807314E2
 2.350000000000000E9    -3.356573894308256E1    -1.260548931433875E2
 2.360000000000000E9    -3.344965029567672E1    -1.262082224816137E2
 2.370000000000000E9    -3.335130988593757E1    -1.262834058791225E2
 2.380000000000000E9    -3.326122720870222E1    -1.261349556010527E2
 2.390000000000000E9    -3.318403017958364E1    -1.259619312440948E2
 2.400000000000000E9    -3.312925045240100E1    -1.256793769432518E2
 2.410000000000000E9    -3.308801753846397E1    -1.253571242696127E2
 2.420000000000000E9    -3.306166107316240E1    -1.251205447000160E2
 2.430000000000000E9    -3.305926000818265E1    -1.247857615754217E2
 2.440000000000000E9    -3.306786901424739E1    -1.246892406307109E2
 2.450000000000000E9    -3.309057218514511E1    -1.245589410493912E2
 2.460000000000000E9    -3.312278831254324E1    -1.246926034721413E2
 2.470000000000000E9    -3.314267041540908E1    -1.249744322251411E2
 2.480000000000000E9    -3.313015333203109E1    -1.253926301382327E2
 2.490000000000000E9    -3.312289292515830E1    -1.258515195031055E2
 2.500000000000000E9    -3.306589684641551E1    -1.263589367119098E2
 2.510000000000000E9    -3.302635114221832E1    -1.267507280642993E2
 2.520000000000000E9    -3.295714192982089E1    -1.271146136755240E2
 2.530000000000000E9    -3.285239421353423E1    -1.274113537321720E2
 2.540000000000000E9    -3.274303117949503E1    -1.274964374084484E2
 2.550000000000000E9    -3.265593680505367E1    -1.275046649470996E2
 2.560000000000000E9    -3.258329632740789E1    -1.273697749718979E2
 2.570000000000000E9    -3.251580412903124E1    -1.272429592584963E2
 2.580000000000000E9    -3.248396853794247E1    -1.270620614318148E2
 2.590000000000000E9    -3.245814249136740E1    -1.267707382490410E2
 2.600000000000000E9    -3.243860670380100E1    -1.265801611584361E2
 2.610000000000000E9    -3.244417353303966E1    -1.264868144983685E2
 2.620000000000000E9    -3.246374290115704E1    -1.264627834928153E2
 2.630000000000000E9    -3.248632576963907E1    -1.265817945580892E2
 2.640000000000000E9    -3.248622104769803E1    -1.269400695394191E2
 2.650000000000000E9    -3.249668940914009E1    -1.272012419763151E2
 2.660000000000000E9    -3.248995217608990E1    -1.276864196654542E2
 2.670000000000000E9    -3.245880872591754E1    -1.280614216929507E2
 2.680000000000000E9    -3.240752589270888E1    -1.285551799272536E2
 2.690000000000000E9    -3.234528299539215E1    -1.288984186549023E2
 2.700000000000000E9    -3.226547812894587E1    -1.292332645952204E2
 2.710000000000000E9    -3.218403552003967E1    -1.294420242090033E2
 2.720000000000000E9    -3.209834380894823E1    -1.294641656429799E2
 2.730000000000000E9    -3.201985763297132E1    -1.293860334639139E2
 2.740000000000000E9    -3.197838809713608E1    -1.293170132547503E2
 2.750000000000000E9    -3.193533374944383E1    -1.291774043208978E2
 2.760000000000000E9    -3.190798684314326E1    -1.290934345544666E2
 2.770000000000000E9    -3.187629069401222E1    -1.290107456452870E2
 2.780000000000000E9    -3.188435002232883E1    -1.290913912394221E2
 2.790000000000000E9    -3.187171678861105E1    -1.291925580868234E2
 2.800000000000000E9    -3.186042561354785E1    -1.293297699948158E2
 2.810000000000000E9    -3.186475547178699E1    -1.296933095216566E2
 2.820000000000000E9    -3.184330076087338E1    -1.301230211148290E2
 2.830000000000000E9    -3.179943111833882E1    -1.305250503401545E2
 2.840000000000000E9    -3.176314575311162E1    -1.309786777382055E2
 2.850000000000000E9    -3.168930901740908E1    -1.314119606753669E2
 2.860000000000000E9    -3.162753139737374E1    -1.317601052357286E2
