#  HZ   S   DB   R     50.00 
! Rohde & Schwarz Vector Network Analyzer 
! Rohde-Schwarz,ZNA26-4Port,1332450024101475,2.90
! Created: UTC 5/21/2025, 7:05:22 PM
! freq[Hz]                db:S11                  ang:S11
 1.000000000000000E7     1.281936042283114       1.792037964592442E2
 2.000000000000000E7     3.500192049240336E-1    1.790742766292098E2
 3.000000000000000E7     1.925731022711265E-1    1.788525278953884E2
 4.000000000000000E7     2.162026958066923E-1    1.785019677546924E2
 5.000000000000000E7     3.077196498409324E-1    1.780699884379445E2
 6.000000000000000E7     3.509628325832986E-1    1.777702788832312E2
 7.000000000000000E7     1.965493447764372E-1    1.777332609732663E2
 8.000000000000000E7     1.184160793959570E-1    1.776592496996000E2
 9.000000000000000E7     1.076108572611055E-1    1.774482221739801E2
 1.000000000000000E8     1.206050732169912E-1    1.771969197675936E2
 1.100000000000000E8     1.228047403464855E-1    1.769350645591521E2
 1.200000000000000E8     8.545798610880415E-2    1.767618871757315E2
 1.300000000000000E8     5.342379894307830E-2    1.765606258077967E2
 1.400000000000000E8     4.026041014571067E-2    1.763242038692666E2
 1.500000000000000E8     4.663335198743082E-2    1.760775150064889E2
 1.600000000000000E8     6.586231886683647E-2    1.757897619549742E2
 1.700000000000000E8     6.782711221831739E-2    1.755617496925251E2
 1.800000000000000E8     3.712276241809959E-2    1.753655560374559E2
 1.900000000000000E8     1.613825062044505E-2    1.751367047786540E2
 2.000000000000000E8     1.335938024108467E-2    1.749116161703956E2
 2.100000000000000E8     2.039198605055238E-2    1.746530996118885E2
 2.200000000000000E8     3.486113998620938E-2    1.743920143649977E2
 2.300000000000000E8     4.191603051577025E-2    1.741448979154340E2
 2.400000000000000E8     2.065471217172274E-2    1.739338575575370E2
 2.500000000000000E8     6.747718210955897E-3    1.737081542067513E2
 2.600000000000000E8     3.498175695527263E-3    1.734723940898585E2
 2.700000000000000E8     5.082015781047861E-3    1.732256392223556E2
 2.800000000000000E8     5.472310676826414E-3    1.729938962411843E2
 2.900000000000000E8     7.560920370777061E-4    1.727583135576165E2
 3.000000000000000E8    -5.716362069304643E-3    1.725327787982297E2
 3.100000000000000E8    -6.104947551621331E-3    1.722917382484534E2
 3.200000000000000E8    -5.783927574755488E-3    1.720441958067839E2
 3.300000000000000E8     3.750974608504876E-4    1.718031063674332E2
 3.400000000000000E8    -2.803919683322274E-3    1.715643819066059E2
 3.500000000000000E8    -1.207339115175920E-2    1.713312977344502E2
 3.600000000000000E8    -1.539941571445395E-2    1.710957235794024E2
 3.700000000000000E8    -1.555561307334638E-2    1.708566544891789E2
 3.800000000000000E8    -1.659121035889264E-2    1.706167437564012E2
 3.900000000000000E8    -9.945050566288959E-3    1.703936868398580E2
 4.000000000000000E8    -1.093629203284664E-2    1.701658273876755E2
 4.100000000000000E8    -1.611688078396966E-2    1.699220943680366E2
 4.200000000000000E8    -2.165299746423250E-2    1.696907010386515E2
 4.300000000000000E8    -2.394039369787741E-2    1.694498885397196E2
 4.400000000000000E8    -2.524728156928602E-2    1.692118538216510E2
 4.500000000000000E8    -2.715172598405800E-2    1.689770309554025E2
 4.600000000000000E8    -2.843616168919180E-2    1.687329072542350E2
 4.700000000000000E8    -3.070005540739497E-2    1.684920271272041E2
 4.800000000000000E8    -3.139116642310091E-2    1.682605604270053E2
 4.900000000000000E8    -3.231026550508129E-2    1.680189663290635E2
 5.000000000000000E8    -3.368604894715579E-2    1.677730536939430E2
 5.100000000000000E8    -3.531675242001899E-2    1.675360700456390E2
 5.200000000000000E8    -3.724815885728501E-2    1.672833560119270E2
 5.300000000000000E8    -3.882234634101592E-2    1.670481552924358E2
 5.400000000000000E8    -3.973748336080587E-2    1.668169667962973E2
 5.500000000000000E8    -3.960421993008549E-2    1.665723152023400E2
 5.600000000000000E8    -3.958169181626151E-2    1.663366897537372E2
 5.700000000000000E8    -4.103230884336845E-2    1.661043068534108E2
 5.800000000000000E8    -4.275408623001069E-2    1.658699663431613E2
 5.900000000000000E8    -4.303046559901715E-2    1.656535588931413E2
 6.000000000000000E8    -4.510715398930185E-2    1.654151317846163E2
 6.100000000000000E8    -4.796047960422672E-2    1.651854783359383E2
 6.200000000000000E8    -4.911958654603669E-2    1.649422534099952E2
 6.300000000000000E8    -5.106993056038283E-2    1.646944992770697E2
 6.400000000000000E8    -4.924921905379649E-2    1.644570927075860E2
 6.500000000000000E8    -4.964819414634619E-2    1.642261455805146E2
 6.600000000000000E8    -5.179488338895984E-2    1.639819075442342E2
 6.700000000000000E8    -5.423620335260969E-2    1.637252971675714E2
 6.800000000000000E8    -5.574396894424101E-2    1.634917662129516E2
 6.900000000000000E8    -5.529569840319575E-2    1.632473885861221E2
 7.000000000000000E8    -5.434630794916281E-2    1.630070067910171E2
 7.100000000000000E8    -5.630836003299719E-2    1.627715301724284E2
 7.200000000000000E8    -5.730442987351254E-2    1.625361572561673E2
 7.300000000000000E8    -6.111878166220311E-2    1.622952428415983E2
 7.400000000000000E8    -6.107259966073914E-2    1.620627440847523E2
 7.500000000000000E8    -6.138544229624136E-2    1.618291587022547E2
 7.600000000000000E8    -6.203316567692470E-2    1.616027749195326E2
 7.700000000000000E8    -6.342868404053448E-2    1.613797754579480E2
 7.800000000000000E8    -6.279438856695996E-2    1.611513145278382E2
 7.900000000000000E8    -6.621076062087150E-2    1.609184051858159E2
 8.000000000000000E8    -6.682886536118525E-2    1.606934105114928E2
 8.100000000000000E8    -6.706849410426785E-2    1.604539624807420E2
 8.200000000000000E8    -6.846984886491453E-2    1.602071124392993E2
 8.300000000000000E8    -6.722194330602299E-2    1.599685287144790E2
 8.400000000000000E8    -6.826709796983058E-2    1.597175324643275E2
 8.500000000000000E8    -6.974270157713178E-2    1.594774096564539E2
 8.600000000000000E8    -6.964294276870377E-2    1.592312737024866E2
 8.700000000000000E8    -6.962376886168622E-2    1.589792983926885E2
 8.800000000000000E8    -7.006892916046252E-2    1.587433250005805E2
 8.900000000000000E8    -7.105826307138488E-2    1.584927019309711E2
 9.000000000000000E8    -7.128240614038299E-2    1.582541816210893E2
 9.100000000000000E8    -7.123937869128134E-2    1.580113827241067E2
 9.200000000000000E8    -7.317112109219688E-2    1.577874831857521E2
 9.300000000000000E8    -7.253976785295420E-2    1.575503219295504E2
 9.400000000000000E8    -7.449136637374713E-2    1.573271207275830E2
 9.500000000000000E8    -7.334122554607422E-2    1.570961427265231E2
 9.600000000000000E8    -7.387848665359874E-2    1.568682229889004E2
 9.700000000000000E8    -7.443906306106726E-2    1.566283418989201E2
 9.800000000000000E8    -7.428508669579990E-2    1.564085787693602E2
 9.900000000000000E8    -7.413625814603446E-2    1.561745258908428E2
 1.000000000000000E9    -7.525297727041960E-2    1.559517227776803E2
 1.010000000000000E9    -7.516271280963524E-2    1.557142710873083E2
 1.020000000000000E9    -7.656523806406312E-2    1.554683779727400E2
 1.030000000000000E9    -7.696928759128226E-2    1.552392633392057E2
 1.040000000000000E9    -7.715380027636404E-2    1.549977755675100E2
 1.050000000000000E9    -7.833760823149843E-2    1.547526468336310E2
 1.060000000000000E9    -7.939665615631369E-2    1.545179263678554E2
 1.070000000000000E9    -7.977335853433884E-2    1.542821092422054E2
 1.080000000000000E9    -8.121517487929902E-2    1.540498557782342E2
 1.090000000000000E9    -8.135553072688786E-2    1.538163530805535E2
 1.100000000000000E9    -8.123941636357448E-2    1.535842059077188E2
 1.110000000000000E9    -8.001966894383526E-2    1.533587104287277E2
 1.120000000000000E9    -8.021140376019464E-2    1.531212582442260E2
 1.130000000000000E9    -8.044779254139668E-2    1.528853748050757E2
 1.140000000000000E9    -8.298118460420147E-2    1.526408737854802E2
 1.150000000000000E9    -8.478241448209460E-2    1.523912207417835E2
 1.160000000000000E9    -8.501158074352826E-2    1.521316817430688E2
 1.170000000000000E9    -8.439983703775386E-2    1.518749614244239E2
 1.180000000000000E9    -8.320714264916935E-2    1.516227233112738E2
 1.190000000000000E9    -8.232475624938693E-2    1.513722064798213E2
 1.200000000000000E9    -8.149061332945630E-2    1.511243404259822E2
 1.210000000000000E9    -8.092337266848222E-2    1.508791185112816E2
 1.220000000000000E9    -8.025079318152049E-2    1.506356386788480E2
 1.230000000000000E9    -8.156348475290048E-2    1.503957698443095E2
 1.240000000000000E9    -8.152566655074209E-2    1.501552158135804E2
 1.250000000000000E9    -8.132699479500530E-2    1.499084316753131E2
 1.260000000000000E9    -7.964423484950897E-2    1.496520243987201E2
 1.270000000000000E9    -7.695034254797256E-2    1.493999874502179E2
 1.280000000000000E9    -7.287263782647715E-2    1.491485637035470E2
 1.290000000000000E9    -6.852440226160013E-2    1.489083245242167E2
 1.300000000000000E9    -6.538550071867809E-2    1.486834298892458E2
 1.310000000000000E9    -6.353828753043760E-2    1.484806835019110E2
 1.320000000000000E9    -6.306740586120946E-2    1.482854426048268E2
 1.330000000000000E9    -6.294186799617117E-2    1.480764493428735E2
 1.340000000000000E9    -6.550512351342151E-2    1.478528673593899E2
 1.350000000000000E9    -6.755922741714547E-2    1.476086036605406E2
 1.360000000000000E9    -6.901963362006770E-2    1.473588145525546E2
 1.370000000000000E9    -7.134850263034756E-2    1.471041688853001E2
 1.380000000000000E9    -7.219212306767907E-2    1.468505972624586E2
 1.390000000000000E9    -7.352497815544326E-2    1.465980766560300E2
 1.400000000000000E9    -7.290866533209855E-2    1.463474218422946E2
 1.410000000000000E9    -7.096392729113260E-2    1.460959146399913E2
 1.420000000000000E9    -7.020299060537087E-2    1.458551114897040E2
 1.430000000000000E9    -6.970695261354913E-2    1.456287616334633E2
 1.440000000000000E9    -6.872485473410442E-2    1.454080195295745E2
 1.450000000000000E9    -6.868262333962938E-2    1.451814047822090E2
 1.460000000000000E9    -7.127406347807905E-2    1.449623301472250E2
 1.470000000000000E9    -7.426702466367627E-2    1.447303363966011E2
 1.480000000000000E9    -7.704066567369659E-2    1.445014107005682E2
 1.490000000000000E9    -7.942138307006461E-2    1.442679504538310E2
 1.500000000000000E9    -7.956527911005681E-2    1.440272360796418E2
 1.510000000000000E9    -7.772534017220070E-2    1.437828356847920E2
 1.520000000000000E9    -7.580033036860764E-2    1.435478736511298E2
 1.530000000000000E9    -7.563106003266358E-2    1.433059333143087E2
 1.540000000000000E9    -7.580881501269657E-2    1.430656124602991E2
 1.550000000000000E9    -7.629899418360986E-2    1.428236271259392E2
 1.560000000000000E9    -7.634473956209581E-2    1.425845303240841E2
 1.570000000000000E9    -7.642194431223212E-2    1.423520041253561E2
 1.580000000000000E9    -7.726482301610077E-2    1.421104809441861E2
 1.590000000000000E9    -7.941768390085426E-2    1.418692051104111E2
 1.600000000000000E9    -7.986376067733825E-2    1.416312431192628E2
 1.610000000000000E9    -8.002237361661425E-2    1.413984618329198E2
 1.620000000000000E9    -7.953555304383078E-2    1.411619337520861E2
 1.630000000000000E9    -8.005801366148457E-2    1.409223610866161E2
 1.640000000000000E9    -7.977989572613323E-2    1.406844203413388E2
 1.650000000000000E9    -7.856379567391795E-2    1.404462937063231E2
 1.660000000000000E9    -7.796982952559718E-2    1.402105035593925E2
 1.670000000000000E9    -7.660353056364085E-2    1.399779577787930E2
 1.680000000000000E9    -7.467888774671336E-2    1.397477510826364E2
 1.690000000000000E9    -7.397402760288696E-2    1.395109635675869E2
 1.700000000000000E9    -7.539273431296728E-2    1.392694550802085E2
 1.710000000000000E9    -7.614622279767171E-2    1.390172670175745E2
 1.720000000000000E9    -7.661946446531835E-2    1.387841508520714E2
 1.730000000000000E9    -7.688493194445785E-2    1.385389411925983E2
 1.740000000000000E9    -7.772374053752897E-2    1.383002251268658E2
 1.750000000000000E9    -7.907614074286530E-2    1.380462535982600E2
 1.760000000000000E9    -7.986242164656482E-2    1.377964984388962E2
 1.770000000000000E9    -7.768446842805773E-2    1.375495259254068E2
 1.780000000000000E9    -7.879918538509045E-2    1.372942047169623E2
 1.790000000000000E9    -7.783590988215133E-2    1.370579297273038E2
 1.800000000000000E9    -7.602093880550929E-2    1.368224866797480E2
 1.810000000000000E9    -7.345670025317919E-2    1.365919553449146E2
 1.820000000000000E9    -7.275287379663586E-2    1.363675733527541E2
 1.830000000000000E9    -7.202879198246542E-2    1.361455985899679E2
 1.840000000000000E9    -7.089730992752849E-2    1.359264937764769E2
 1.850000000000000E9    -6.953129769840755E-2    1.357042569552937E2
 1.860000000000000E9    -7.226644568537248E-2    1.354865530957144E2
 1.870000000000000E9    -7.660994493313941E-2    1.352660615923223E2
 1.880000000000000E9    -7.875972636546064E-2    1.350118489602067E2
 1.890000000000000E9    -8.129340878170112E-2    1.347327455034468E2
 1.900000000000000E9    -8.249022453319556E-2    1.344618606301666E2
 1.910000000000000E9    -7.832079987604978E-2    1.342060995066656E2
 1.920000000000000E9    -7.721326594441300E-2    1.339641934140240E2
 1.930000000000000E9    -7.644724217659488E-2    1.337043198102852E2
 1.940000000000000E9    -7.568006148405987E-2    1.334675320685859E2
 1.950000000000000E9    -7.555998571326297E-2    1.332233479547284E2
 1.960000000000000E9    -7.359098714967412E-2    1.329852345373662E2
 1.970000000000000E9    -7.282962627768066E-2    1.327485753139069E2
 1.980000000000000E9    -7.470619812623441E-2    1.325219236555936E2
 1.990000000000000E9    -7.561255677178143E-2    1.322838045993666E2
 2.000000000000000E9    -7.442913018471903E-2    1.320444977185495E2
 2.010000000000000E9    -6.488846219681101E-2    1.317905829498355E2
 2.020000000000000E9    -5.462943838007113E-2    1.315317519345778E2
 2.030000000000000E9    -5.456757237020921E-2    1.313095623012337E2
 2.040000000000000E9    -5.539073015769022E-2    1.310779697181327E2
 2.050000000000000E9    -5.573491706845822E-2    1.308468841088383E2
 2.060000000000000E9    -5.724638796887630E-2    1.305971522159089E2
 2.070000000000000E9    -5.901077486501373E-2    1.303603754999210E2
 2.080000000000000E9    -6.004751784052471E-2    1.301155849431199E2
 2.090000000000000E9    -6.122810299837435E-2    1.298755564723787E2
 2.100000000000000E9    -6.267012862274128E-2    1.296339153956988E2
 2.110000000000000E9    -6.255183649535634E-2    1.293883888709684E2
 2.120000000000000E9    -6.227421719324049E-2    1.291361310872321E2
 2.130000000000000E9    -6.275393884460076E-2    1.288915407230175E2
 2.140000000000000E9    -6.307662131417725E-2    1.286485813265174E2
 2.150000000000000E9    -6.366477016045519E-2    1.284035621944939E2
 2.160000000000000E9    -6.317734715249788E-2    1.281699100966540E2
 2.170000000000000E9    -6.315033191858847E-2    1.279321349048475E2
 2.180000000000000E9    -6.352550674897010E-2    1.276955108267136E2
 2.190000000000000E9    -6.362340763943676E-2    1.274618045083255E2
 2.200000000000000E9    -6.444778985789124E-2    1.272157042898854E2
 2.210000000000000E9    -6.527889672144549E-2    1.269746989320194E2
 2.220000000000000E9    -6.538725471496794E-2    1.267376167656485E2
 2.230000000000000E9    -6.546857159709821E-2    1.264909241299281E2
 2.240000000000000E9    -6.605828002236871E-2    1.262395021456390E2
 2.250000000000000E9    -6.782940638317035E-2    1.259906744408600E2
 2.260000000000000E9    -6.858634614531847E-2    1.257412794426482E2
 2.270000000000000E9    -6.948179278634742E-2    1.254832669171714E2
 2.280000000000000E9    -6.901549697171870E-2    1.252383244262738E2
 2.290000000000000E9    -6.964893655173170E-2    1.249905505369405E2
 2.300000000000000E9    -7.119025011316135E-2    1.247446112972802E2
 2.310000000000000E9    -7.199720994233240E-2    1.245075878625684E2
 2.320000000000000E9    -7.285040557136291E-2    1.242707226392146E2
 2.330000000000000E9    -7.306470618233056E-2    1.240324229557761E2
 2.340000000000000E9    -7.312335370139088E-2    1.237923742789183E2
 2.350000000000000E9    -7.384079561830766E-2    1.235611182773878E2
 2.360000000000000E9    -7.396331123659919E-2    1.233300091211104E2
 2.370000000000000E9    -7.547736679987826E-2    1.230911330165771E2
 2.380000000000000E9    -7.650811187965989E-2    1.228595442571240E2
 2.390000000000000E9    -7.686586533218842E-2    1.226341272658912E2
 2.400000000000000E9    -7.835509112249653E-2    1.223910965316107E2
 2.410000000000000E9    -8.056909387858041E-2    1.221428638339986E2
 2.420000000000000E9    -8.175900999113363E-2    1.218913180858397E2
 2.430000000000000E9    -8.135124938317771E-2    1.216237374468053E2
 2.440000000000000E9    -8.056580167161073E-2    1.213726495349574E2
 2.450000000000000E9    -7.974854304303260E-2    1.211261699295640E2
 2.460000000000000E9    -8.054087062876350E-2    1.209017790206644E2
 2.470000000000000E9    -8.283054666557725E-2    1.206575345778352E2
 2.480000000000000E9    -8.492352841736869E-2    1.204162350994457E2
 2.490000000000000E9    -8.563030608639209E-2    1.201777769275459E2
 2.500000000000000E9    -8.576091687365049E-2    1.199337246656580E2
 2.510000000000000E9    -8.788598110615879E-2    1.197088049578389E2
 2.520000000000000E9    -8.955639847480862E-2    1.194818709023547E2
 2.530000000000000E9    -9.259545416482233E-2    1.192411758531148E2
 2.540000000000000E9    -9.385012483408213E-2    1.189997257843043E2
 2.550000000000000E9    -9.536007518979837E-2    1.187572225306986E2
 2.560000000000000E9    -9.517304042519711E-2    1.185035528550279E2
 2.570000000000000E9    -9.471991930273921E-2    1.182580011803273E2
 2.580000000000000E9    -9.455386297312261E-2    1.180101119697950E2
 2.590000000000000E9    -9.469118744714614E-2    1.177543296957420E2
 2.600000000000000E9    -9.368120148526142E-2    1.175038219162768E2
 2.610000000000000E9    -9.401685439585571E-2    1.172602840864255E2
 2.620000000000000E9    -9.427733891497769E-2    1.170133781814177E2
 2.630000000000000E9    -9.436954383077899E-2    1.167640521323640E2
 2.640000000000000E9    -9.518822028384571E-2    1.165081566994331E2
 2.650000000000000E9    -9.807741848719174E-2    1.162570458320047E2
 2.660000000000000E9    -1.010007217295940E-1    1.159974469062086E2
 2.670000000000000E9    -1.005102470968351E-1    1.157510191251466E2
 2.680000000000000E9    -9.926777585864183E-2    1.155052096041748E2
 2.690000000000000E9    -9.939476000857213E-2    1.152687519192003E2
 2.700000000000000E9    -9.960950839997904E-2    1.150350855287503E2
 2.710000000000000E9    -9.906558261310652E-2    1.147876559476170E2
 2.720000000000000E9    -9.727860086429201E-2    1.145412715830818E2
 2.730000000000000E9    -9.497980948634112E-2    1.142988263501055E2
 2.740000000000000E9    -9.476947600472233E-2    1.140536686113963E2
 2.750000000000000E9    -9.552880632256944E-2    1.138186005216426E2
 2.760000000000000E9    -9.701350228080571E-2    1.135754018941804E2
 2.770000000000000E9    -9.893765053835692E-2    1.133288592731792E2
 2.780000000000000E9    -1.000769834465950E-1    1.130845640172979E2
 2.790000000000000E9    -1.010682290650679E-1    1.128362715218903E2
 2.800000000000000E9    -1.010642396694950E-1    1.125928003770753E2
 2.810000000000000E9    -1.007521894718358E-1    1.123380515803450E2
 2.820000000000000E9    -1.004765334375331E-1    1.120985333108613E2
 2.830000000000000E9    -1.024733720778092E-1    1.118670839832394E2
 2.840000000000000E9    -1.024609009844589E-1    1.116354425000815E2
 2.850000000000000E9    -1.017236758497779E-1    1.114038804914290E2
 2.860000000000000E9    -1.021821217214876E-1    1.111752649930743E2
