#  HZ   S   DB   R     50.00
! Rohde & Schwarz Vector Network Analyzer
! Rohde-Schwarz,ZNA26-4Port,1332450024101475,2.90
! Created: UTC 5/21/2025, 7:06:31 PM
! freq[Hz]                db:S11                  ang:S11
1.000000e+07  0.079174   -0.220267
2.000000e+07  0.137454   -0.454126
3.000000e+07  0.104573   -0.712911
4.000000e+07  0.043716   -1.058085
5.000000e+07  0.014605   -1.356776
6.000000e+07  0.000449   -1.726363
7.000000e+07  0.009031   -1.958136
8.000000e+07  0.012270   -2.206252
9.000000e+07  0.012358   -2.484649
1.000000e+08  0.006828   -2.802680
1.100000e+08  0.001725   -3.111633
1.200000e+08  0.007922   -3.368118
1.300000e+08  0.011254   -3.626763
1.400000e+08  0.013594   -3.901972
1.500000e+08  0.009048   -4.207154
1.600000e+08  0.003177   -4.527538
1.700000e+08  0.002853   -4.822260
1.800000e+08  0.006533   -5.059104
1.900000e+08  0.009977   -5.301734
2.000000e+08  0.009763   -5.585150
2.100000e+08  0.008018   -5.900287
2.200000e+08  0.003144   -6.216491
2.300000e+08  0.000945   -6.518859
2.400000e+08  0.002516   -6.778089
2.500000e+08  0.004049   -7.027490
2.600000e+08  0.007104   -7.313864
2.700000e+08  0.004316   -7.610690
2.800000e+08  0.003297   -7.897095
2.900000e+08  0.004021   -8.172909
3.000000e+08  0.005978   -8.443964
3.100000e+08  0.004172   -8.719421
3.200000e+08  0.003764   -9.018352
3.300000e+08  0.002825   -9.324792
3.400000e+08  0.003437   -9.596788
3.500000e+08  0.004379   -9.851062
3.600000e+08  0.007260  -10.081895
3.700000e+08  0.008541  -10.348720
3.800000e+08  0.008247  -10.704763
3.900000e+08  0.006823  -11.027857
4.000000e+08  0.003967  -11.316914
4.100000e+08  0.004362  -11.567808
4.200000e+08  0.003663  -11.829536
4.300000e+08  0.005422  -12.107321
4.400000e+08  0.006114  -12.399919
4.500000e+08  0.005713  -12.692845
4.600000e+08  0.005363  -12.973474
4.700000e+08  0.005337  -13.256391
4.800000e+08  0.006786  -13.545178
4.900000e+08  0.007551  -13.830554
5.000000e+08  0.006423  -14.120760
5.100000e+08  0.007544  -14.387816
5.200000e+08  0.006091  -14.642200
5.300000e+08  0.007817  -14.917072
5.400000e+08  0.004553  -15.200224
5.500000e+08  0.005761  -15.498633
5.600000e+08  0.003515  -15.785639
5.700000e+08  0.004368  -16.070041
5.800000e+08  0.003131  -16.335327
5.900000e+08  0.002438  -16.621643
6.000000e+08  0.003963  -16.921881
6.100000e+08  0.003782  -17.217354
6.200000e+08  0.004946  -17.517197
6.300000e+08  0.005295  -17.785767
6.400000e+08  0.002156  -18.063737
6.500000e+08  0.001969  -18.353972
6.600000e+08  0.003270  -18.620071
6.700000e+08  0.002510  -18.902517
6.800000e+08  0.002195  -19.178542
6.900000e+08  0.000208  -19.443630
7.000000e+08  0.000262  -19.710295
7.100000e+08  0.000622  -19.992368
7.200000e+08  0.001240  -20.276030
7.300000e+08  0.000501  -20.556071
7.400000e+08 -0.000165  -20.831435
7.500000e+08 -0.001475  -21.108252
7.600000e+08 -0.002224  -21.392482
7.700000e+08 -0.001788  -21.683750
7.800000e+08 -0.002090  -21.988147
7.900000e+08 -0.001533  -22.278643
8.000000e+08 -0.001287  -22.571779
8.100000e+08 -0.003256  -22.858731
8.200000e+08 -0.002884  -23.138449
8.300000e+08 -0.001852  -23.424116
8.400000e+08 -0.002216  -23.692947
8.500000e+08 -0.002011  -23.961020
8.600000e+08 -0.002458  -24.231532
8.700000e+08 -0.001216  -24.499562
8.800000e+08  0.000177  -24.763852
8.900000e+08 -0.000091  -25.047156
9.000000e+08  0.000396  -25.325726
9.100000e+08 -0.000625  -25.602394
9.200000e+08 -0.001006  -25.885465
9.300000e+08 -0.001784  -26.171976
9.400000e+08  0.000597  -26.456172
9.500000e+08  0.000697  -26.750278
9.600000e+08 -0.000908  -27.039792
9.700000e+08 -0.001486  -27.328471
9.800000e+08 -0.002039  -27.607396
9.900000e+08 -0.002136  -27.887488
1.000000e+09 -0.001575  -28.166713
1.010000e+09 -0.001300  -28.432221
1.020000e+09 -0.001238  -28.698275
1.030000e+09 -0.001326  -28.970530
1.040000e+09 -0.001340  -29.237847
1.050000e+09 -0.000531  -29.504969
1.060000e+09  0.000532  -29.776405
1.070000e+09  0.000768  -30.045429
1.080000e+09  0.001541  -30.316013
1.090000e+09  0.001242  -30.588364
1.100000e+09 -0.000368  -30.874159
1.110000e+09 -0.001001  -31.173411
1.120000e+09 -0.000729  -31.476804
1.130000e+09  0.000447  -31.778920
1.140000e+09 -0.000018  -32.074627
1.150000e+09  0.000198  -32.364630
1.160000e+09  0.000399  -32.639339
1.170000e+09 -0.000045  -32.915851
1.180000e+09 -0.000332  -33.201938
1.190000e+09 -0.001026  -33.482825
1.200000e+09 -0.001259  -33.774101
1.210000e+09 -0.002364  -34.050094
1.220000e+09 -0.002680  -34.328543
1.230000e+09 -0.002642  -34.618122
1.240000e+09 -0.002704  -34.902050
1.250000e+09 -0.002726  -35.180873
1.260000e+09 -0.003531  -35.457437
1.270000e+09 -0.004504  -35.726898
1.280000e+09 -0.006668  -36.009385
1.290000e+09 -0.009409  -36.298700
1.300000e+09 -0.012530  -36.590452
1.310000e+09 -0.013176  -36.896469
1.320000e+09 -0.011481  -37.202578
1.330000e+09 -0.010240  -37.504828
1.340000e+09 -0.005842  -37.784712
1.350000e+09 -0.002763  -38.054418
1.360000e+09 -0.001923  -38.324688
1.370000e+09 -0.001600  -38.584401
1.380000e+09  0.000288  -38.847434
1.390000e+09  0.001818  -39.109214
1.400000e+09 -0.000120  -39.375284
1.410000e+09 -0.002135  -39.640580
1.420000e+09 -0.004759  -39.919541
1.430000e+09 -0.006550  -40.203262
1.440000e+09 -0.007285  -40.495162
1.450000e+09 -0.007639  -40.792190
1.460000e+09 -0.007097  -41.089676
1.470000e+09 -0.005378  -41.387912
1.480000e+09 -0.002798  -41.640929
1.490000e+09 -0.002795  -41.940039
1.500000e+09 -0.005101  -42.203543
1.510000e+09 -0.006594  -42.473058
1.520000e+09 -0.007069  -42.748302
1.530000e+09 -0.008591  -43.027506
1.540000e+09 -0.009184  -43.291953
1.550000e+09 -0.010149  -43.559367
1.560000e+09 -0.010086  -43.824725
1.570000e+09 -0.009169  -44.089929
1.580000e+09 -0.009541  -44.356951
1.590000e+09 -0.008526  -44.623798
1.600000e+09 -0.007632  -44.893283
1.610000e+09 -0.008293  -45.166787
1.620000e+09 -0.009340  -45.456999
1.630000e+09 -0.009906  -45.748445
1.640000e+09 -0.010302  -46.035460
1.650000e+09 -0.011140  -46.324077
1.660000e+09 -0.013012  -46.610645
1.670000e+09 -0.015436  -46.893333
1.680000e+09 -0.015776  -47.181347
1.690000e+09 -0.015426  -47.478085
1.700000e+09 -0.015981  -47.769023
1.710000e+09 -0.015406  -48.037048
1.720000e+09 -0.015315  -48.309485
1.730000e+09 -0.015557  -48.580288
1.740000e+09 -0.015945  -48.847649
1.750000e+09 -0.015313  -49.108865
1.760000e+09 -0.013562  -49.378291
1.770000e+09 -0.012784  -49.651375
1.780000e+09 -0.014716  -49.921498
1.790000e+09 -0.017969  -50.193166
1.800000e+09 -0.020504  -50.477886
1.810000e+09 -0.021702  -50.768763
1.820000e+09 -0.022113  -51.053372
1.830000e+09 -0.023887  -51.346087
1.840000e+09 -0.023797  -51.635457
1.850000e+09 -0.023651  -51.933697
1.860000e+09 -0.024133  -52.230718
1.870000e+09 -0.024279  -52.504338
1.880000e+09 -0.018362  -52.757527
1.890000e+09 -0.013511  -52.996977
1.900000e+09 -0.015541  -53.223972
1.910000e+09 -0.022155  -53.498113
1.920000e+09 -0.022945  -53.771697
1.930000e+09 -0.023606  -54.050227
1.940000e+09 -0.023079  -54.327467
1.950000e+09 -0.023006  -54.613060
1.960000e+09 -0.024364  -54.898992
1.970000e+09 -0.025388  -55.198757
1.980000e+09 -0.024256  -55.500422
1.990000e+09 -0.023147  -55.791756
2.000000e+09 -0.022620  -56.065415
2.010000e+09 -0.028497  -56.301192
2.020000e+09 -0.034549  -56.551667
2.030000e+09 -0.034605  -56.849431
2.040000e+09 -0.033886  -57.122418
2.050000e+09 -0.032947  -57.402580
2.060000e+09 -0.032694  -57.665040
2.070000e+09 -0.032292  -57.921155
2.080000e+09 -0.033345  -58.194266
2.090000e+09 -0.033576  -58.458951
2.100000e+09 -0.032801  -58.722370
2.110000e+09 -0.031249  -58.986830
2.120000e+09 -0.029540  -59.253922
2.130000e+09 -0.029389  -59.531834
2.140000e+09 -0.029002  -59.818844
2.150000e+09 -0.029065  -60.109248
2.160000e+09 -0.029585  -60.405005
2.170000e+09 -0.028294  -60.694962
2.180000e+09 -0.027092  -60.987769
2.190000e+09 -0.025931  -61.280143
2.200000e+09 -0.024571  -61.573843
2.210000e+09 -0.023697  -61.850868
2.220000e+09 -0.022148  -62.125999
2.230000e+09 -0.019797  -62.377411
2.240000e+09 -0.019253  -62.645965
2.250000e+09 -0.020351  -62.927116
2.260000e+09 -0.021181  -63.199575
2.270000e+09 -0.021097  -63.459684
2.280000e+09 -0.020820  -63.734493
2.290000e+09 -0.019555  -63.995659
2.300000e+09 -0.018647  -64.269017
2.310000e+09 -0.017197  -64.539858
2.320000e+09 -0.016057  -64.817423
2.330000e+09 -0.015113  -65.095880
2.340000e+09 -0.014327  -65.379988
2.350000e+09 -0.013790  -65.669718
2.360000e+09 -0.014134  -65.958915
2.370000e+09 -0.013632  -66.245348
2.380000e+09 -0.013479  -66.525660
2.390000e+09 -0.012618  -66.809078
2.400000e+09 -0.011401  -67.079907
2.410000e+09 -0.009153  -67.333777
2.420000e+09 -0.008556  -67.595341
2.430000e+09 -0.009439  -67.842654
2.440000e+09 -0.011596  -68.108275
2.450000e+09 -0.012261  -68.365380
2.460000e+09 -0.010354  -68.648765
2.470000e+09 -0.007687  -68.914123
2.480000e+09 -0.006668  -69.178608
2.490000e+09 -0.006810  -69.441284
2.500000e+09 -0.006338  -69.715859
2.510000e+09 -0.006387  -69.999184
2.520000e+09 -0.006602  -70.276342
2.530000e+09 -0.006399  -70.562381
2.540000e+09 -0.006234  -70.845562
2.550000e+09 -0.006847  -71.120550
2.560000e+09 -0.006616  -71.402179
2.570000e+09 -0.006208  -71.673199
2.580000e+09 -0.006820  -71.942505
2.590000e+09 -0.005979  -72.206606
2.600000e+09 -0.008859  -72.478987
2.610000e+09 -0.007233  -72.750230
2.620000e+09 -0.004747  -73.019854
2.630000e+09 -0.000160  -73.278408
2.640000e+09  0.003281  -73.540012
2.650000e+09  0.004998  -73.808305
2.660000e+09  0.006805  -74.073634
2.670000e+09  0.004901  -74.327287
2.680000e+09  0.002473  -74.609743
2.690000e+09  0.001818  -74.889722
2.700000e+09  0.001357  -75.179747
2.710000e+09  0.001453  -75.450150
2.720000e+09  0.001683  -75.711268
2.730000e+09 -0.000553  -75.990990
2.740000e+09 -0.002693  -76.268746
2.750000e+09 -0.001993  -76.555008
2.760000e+09 -0.003059  -76.841651
2.770000e+09 -0.000852  -77.113333
2.780000e+09  0.002470  -77.374758
2.790000e+09  0.005498  -77.633336
2.800000e+09  0.009031  -77.891964
2.810000e+09  0.008637  -78.145237
2.820000e+09  0.007739  -78.405164
2.830000e+09  0.006619  -78.678878
2.840000e+09  0.005226  -78.948956
2.850000e+09  0.004279  -79.237054
2.860000e+09  0.004203  -79.525248
2.870000e+09  0.004795  -79.801266
2.880000e+09  0.004342  -80.077763
2.890000e+09  0.004099  -80.350857
2.900000e+09  0.003795  -80.621113
2.910000e+09  0.003324  -80.896197
2.920000e+09  0.003959  -81.152816
2.930000e+09  0.002863  -81.430845
2.940000e+09  0.003803  -81.699454
2.950000e+09  0.005207  -81.964714
2.960000e+09  0.005024  -82.227081
2.970000e+09  0.008925  -82.490791
2.980000e+09  0.008612  -82.740665
2.990000e+09  0.007822  -83.008040
3.000000e+09  0.006823  -83.266241
3.010000e+09  0.006889  -83.557083
3.020000e+09  0.006937  -83.841197
3.030000e+09  0.005795  -84.108060
3.040000e+09  0.004338  -84.375124
3.050000e+09  0.003039  -84.669521
3.060000e+09  0.002809  -84.943841
3.070000e+09  0.001570  -85.227209
3.080000e+09  0.001715  -85.499527
3.090000e+09  0.001574  -85.783339
3.100000e+09  0.002495  -86.042242
3.110000e+09  0.002378  -86.310336
3.120000e+09  0.004111  -86.567526
3.130000e+09  0.003745  -86.808105
3.140000e+09  0.003613  -87.066352
3.150000e+09  0.003338  -87.314047
3.160000e+09  0.002206  -87.577321
3.170000e+09  0.001470  -87.837109
3.180000e+09  0.000552  -88.106082
3.190000e+09 -0.001184  -88.388668
3.200000e+09 -0.001763  -88.667385
3.210000e+09 -0.002011  -88.945946
3.220000e+09 -0.001791  -89.229929
3.230000e+09 -0.000985  -89.513516
3.240000e+09 -0.002121  -89.795133
3.250000e+09 -0.001493  -90.053883
3.260000e+09 -0.001258  -90.322575
3.270000e+09 -0.002764  -90.578965
3.280000e+09 -0.002589  -90.840495
3.290000e+09 -0.003672  -91.104255
3.300000e+09 -0.003843  -91.360744
3.310000e+09 -0.005858  -91.613348
3.320000e+09 -0.007117  -91.875087
3.330000e+09 -0.008134  -92.142009
3.340000e+09 -0.009299  -92.416175
3.350000e+09 -0.009507  -92.686635
3.360000e+09 -0.009593  -92.960425
3.370000e+09 -0.009910  -93.235105
3.380000e+09 -0.009636  -93.507800
3.390000e+09 -0.012480  -93.783775
3.400000e+09 -0.013997  -94.069293
3.410000e+09 -0.014571  -94.352853
3.420000e+09 -0.016084  -94.636837
3.430000e+09 -0.017402  -94.907214
3.440000e+09 -0.016977  -95.180120
3.450000e+09 -0.017282  -95.436476
3.460000e+09 -0.015922  -95.698568
3.470000e+09 -0.016315  -95.970345
3.480000e+09 -0.016582  -96.212037
3.490000e+09 -0.016572  -96.469838
3.500000e+09 -0.016135  -96.728689
3.510000e+09 -0.015178  -96.983918
3.520000e+09 -0.013635  -97.241195
3.530000e+09 -0.012791  -97.522053
3.540000e+09 -0.014914  -97.810371
3.550000e+09 -0.016062  -98.082142
3.560000e+09 -0.017951  -98.374338
3.570000e+09 -0.018943  -98.653532
3.580000e+09 -0.020948  -98.936426
3.590000e+09 -0.022795  -99.231380
3.600000e+09 -0.022879  -99.503885
3.610000e+09 -0.022469  -99.769984
3.620000e+09 -0.023039 -100.042727
3.630000e+09 -0.022291 -100.300777
3.640000e+09 -0.021788 -100.561536
3.650000e+09 -0.022161 -100.816645
3.660000e+09 -0.022173 -101.071697
3.670000e+09 -0.022018 -101.319541
3.680000e+09 -0.022737 -101.575494
3.690000e+09 -0.022289 -101.832387
3.700000e+09 -0.025319 -102.098510
3.710000e+09 -0.026720 -102.365001
3.720000e+09 -0.028159 -102.656336
3.730000e+09 -0.029303 -102.945513
3.740000e+09 -0.030157 -103.244709
3.750000e+09 -0.030108 -103.544416
3.760000e+09 -0.027451 -103.820776
3.770000e+09 -0.026557 -104.098231
3.780000e+09 -0.027568 -104.358748
3.790000e+09 -0.028408 -104.634741
3.800000e+09 -0.029123 -104.895359
3.810000e+09 -0.030539 -105.162305
3.820000e+09 -0.029968 -105.429934
3.830000e+09 -0.030084 -105.693382
3.840000e+09 -0.030018 -105.933946
3.850000e+09 -0.029562 -106.189582
3.860000e+09 -0.030633 -106.441619
3.870000e+09 -0.031880 -106.712867
3.880000e+09 -0.033221 -106.970878
3.890000e+09 -0.035266 -107.263872
3.900000e+09 -0.035787 -107.535920
3.910000e+09 -0.036161 -107.830102
3.920000e+09 -0.034291 -108.117564
3.930000e+09 -0.036442 -108.401516
3.940000e+09 -0.032269 -108.685214
3.950000e+09 -0.034172 -108.937638
3.960000e+09 -0.031126 -109.248491
3.970000e+09 -0.027475 -109.494659
3.980000e+09 -0.033766 -109.785486
3.990000e+09 -0.032988 -110.074021
4.000000e+09 -0.036810 -110.290945
4.010000e+09 -0.038353 -110.564923
4.020000e+09 -0.036325 -110.813460
4.030000e+09 -0.038254 -111.078811
4.040000e+09 -0.037374 -111.356208
4.050000e+09 -0.037874 -111.627406
4.060000e+09 -0.037377 -111.896808
4.070000e+09 -0.037367 -112.167138
4.080000e+09 -0.036673 -112.434715
4.090000e+09 -0.038120 -112.722927
4.100000e+09 -0.039105 -112.999124
4.110000e+09 -0.041383 -113.296111
4.120000e+09 -0.041819 -113.584148
4.130000e+09 -0.041450 -113.861735
4.140000e+09 -0.040651 -114.136247
4.150000e+09 -0.039781 -114.403687
4.160000e+09 -0.038780 -114.659788
4.170000e+09 -0.038553 -114.916497
4.180000e+09 -0.039185 -115.172127
4.190000e+09 -0.038113 -115.425173
4.200000e+09 -0.038823 -115.674811
4.210000e+09 -0.039417 -115.934821
4.220000e+09 -0.039725 -116.188152
4.230000e+09 -0.039561 -116.451985
4.240000e+09 -0.040542 -116.714818
4.250000e+09 -0.040200 -116.980823
4.260000e+09 -0.039730 -117.246240
4.270000e+09 -0.040243 -117.536083
4.280000e+09 -0.041886 -117.821125
4.290000e+09 -0.042450 -118.109188
4.300000e+09 -0.042371 -118.388769
4.310000e+09 -0.042233 -118.661678
4.320000e+09 -0.042118 -118.930444
4.330000e+09 -0.039936 -119.198204
4.340000e+09 -0.039588 -119.461911
4.350000e+09 -0.040693 -119.726612
4.360000e+09 -0.039807 -119.981280
4.370000e+09 -0.040879 -120.244664
4.380000e+09 -0.041343 -120.498130
4.390000e+09 -0.042583 -120.767195
4.400000e+09 -0.042891 -121.029202
4.410000e+09 -0.042114 -121.296250
4.420000e+09 -0.043045 -121.565062
4.430000e+09 -0.040589 -121.831818
4.440000e+09 -0.039660 -122.091442
4.450000e+09 -0.040617 -122.382775
4.460000e+09 -0.041069 -122.661080
4.470000e+09 -0.040808 -122.931703
4.480000e+09 -0.041269 -123.204412
4.490000e+09 -0.041500 -123.471085
4.500000e+09 -0.038972 -123.718808
4.510000e+09 -0.037935 -123.981383
4.520000e+09 -0.037997 -124.244677
4.530000e+09 -0.038804 -124.495949
4.540000e+09 -0.040587 -124.765777
4.550000e+09 -0.040614 -125.017122
4.560000e+09 -0.040252 -125.275604
4.570000e+09 -0.040020 -125.540168
4.580000e+09 -0.040180 -125.809133
4.590000e+09 -0.040045 -126.078293
4.600000e+09 -0.038885 -126.339406
4.610000e+09 -0.037567 -126.607579
4.620000e+09 -0.035861 -126.885766
4.630000e+09 -0.034660 -127.141363
4.640000e+09 -0.035854 -127.421632
4.650000e+09 -0.035019 -127.672405
4.660000e+09 -0.036351 -127.930823
4.670000e+09 -0.036628 -128.208683
4.680000e+09 -0.037120 -128.448508
4.690000e+09 -0.039224 -128.723909
4.700000e+09 -0.034580 -128.969508
4.710000e+09 -0.033758 -129.220160
4.720000e+09 -0.033516 -129.495734
4.730000e+09 -0.030873 -129.728501
4.740000e+09 -0.031380 -129.989149
4.750000e+09 -0.030820 -130.236856
4.760000e+09 -0.030466 -130.497967
4.770000e+09 -0.030672 -130.762575
4.780000e+09 -0.030847 -131.035492
4.790000e+09 -0.030099 -131.295554
4.800000e+09 -0.028715 -131.560435
4.810000e+09 -0.028867 -131.819149
4.820000e+09 -0.031058 -132.095726
4.830000e+09 -0.031076 -132.348729
4.840000e+09 -0.031534 -132.617706
4.850000e+09 -0.030223 -132.880470
4.860000e+09 -0.030598 -133.150812
4.870000e+09 -0.028244 -133.422715
4.880000e+09 -0.027349 -133.683782
4.890000e+09 -0.028143 -133.933303
4.900000e+09 -0.026352 -134.184325
4.910000e+09 -0.025270 -134.423576
4.920000e+09 -0.023306 -134.676935
4.930000e+09 -0.023993 -134.929921
4.940000e+09 -0.025679 -135.169942
4.950000e+09 -0.028048 -135.428151
4.960000e+09 -0.028802 -135.689507
4.970000e+09 -0.028849 -135.945962
4.980000e+09 -0.030015 -136.234660
4.990000e+09 -0.028745 -136.497951
5.000000e+09 -0.028622 -136.772914
5.010000e+09 -0.026432 -136.974181
5.020000e+09 -0.027376 -137.213318
5.030000e+09 -0.026495 -137.462702
5.040000e+09 -0.026048 -137.705481
5.050000e+09 -0.026873 -137.959360
5.060000e+09 -0.029951 -138.203527
5.070000e+09 -0.031247 -138.449105
5.080000e+09 -0.031965 -138.703944
5.090000e+09 -0.030818 -138.976819
5.100000e+09 -0.030013 -139.235004
5.110000e+09 -0.028155 -139.499951
5.120000e+09 -0.028051 -139.754150
5.130000e+09 -0.026551 -140.009626
5.140000e+09 -0.024797 -140.271903
5.150000e+09 -0.025128 -140.537459
5.160000e+09 -0.024732 -140.796086
5.170000e+09 -0.025051 -141.054409
5.180000e+09 -0.026574 -141.319098
5.190000e+09 -0.027720 -141.583547
5.200000e+09 -0.028885 -141.844446
5.210000e+09 -0.030921 -142.104278
5.220000e+09 -0.030329 -142.363519
5.230000e+09 -0.031507 -142.626725
5.240000e+09 -0.032960 -142.878361
5.250000e+09 -0.032441 -143.128812
5.260000e+09 -0.029874 -143.378845
5.270000e+09 -0.029588 -143.620153
5.280000e+09 -0.028601 -143.872283
5.290000e+09 -0.028735 -144.128539
5.300000e+09 -0.028904 -144.370074
5.310000e+09 -0.028753 -144.628518
5.320000e+09 -0.029436 -144.890057
5.330000e+09 -0.030516 -145.154847
5.340000e+09 -0.031049 -145.418550
5.350000e+09 -0.032136 -145.686936
5.360000e+09 -0.033897 -145.962009
5.370000e+09 -0.034441 -146.228285
5.380000e+09 -0.033875 -146.487056
5.390000e+09 -0.033205 -146.746586
5.400000e+09 -0.032535 -147.005725
5.410000e+09 -0.031127 -147.263016
5.420000e+09 -0.030977 -147.516552
5.430000e+09 -0.030064 -147.764099
5.440000e+09 -0.031080 -148.007425
5.450000e+09 -0.032423 -148.243074
5.460000e+09 -0.034538 -148.496061
5.470000e+09 -0.035429 -148.758477
5.480000e+09 -0.035958 -149.015485
5.490000e+09 -0.036572 -149.285463
5.500000e+09 -0.038004 -149.557119
5.510000e+09 -0.038488 -149.826947
5.520000e+09 -0.039039 -150.102402
5.530000e+09 -0.038977 -150.374591
5.540000e+09 -0.039526 -150.637484
5.550000e+09 -0.038357 -150.899731
5.560000e+09 -0.037517 -151.163969
5.570000e+09 -0.038506 -151.408553
5.580000e+09 -0.038437 -151.651025
5.590000e+09 -0.038860 -151.892904
5.600000e+09 -0.040008 -152.133804
5.610000e+09 -0.040954 -152.385241
5.620000e+09 -0.043630 -152.644656
5.630000e+09 -0.044344 -152.903835
5.640000e+09 -0.043216 -153.181199
5.650000e+09 -0.043160 -153.449542
