#  HZ   S   DB   R     50.00 
! Rohde & Schwarz Vector Network Analyzer 
! Rohde-Schwarz,ZNA26-4Port,1332450024101475,2.90
! Created: UTC 5/21/2025, 7:06:31 PM
! freq[Hz]                db:S11                  ang:S11
 1.000000000000000E7     7.917377633292993E-2   -2.202671063754125E-1
 2.000000000000000E7     1.374542646093338E-1   -4.541259782909932E-1
 3.000000000000000E7     1.045731756210023E-1   -7.129113611061274E-1
 4.000000000000000E7     4.371581205747575E-2   -1.058084896391388
 5.000000000000000E7     1.460498939596886E-2   -1.356775573136026
 6.000000000000000E7     4.486606860121734E-4   -1.726362882172321
 7.000000000000000E7     9.030959196559102E-3   -1.958136273477654
 8.000000000000000E7     1.227046896873729E-2   -2.206252488709755
 9.000000000000000E7     1.235805945825465E-2   -2.484649332222870
 1.000000000000000E8     6.828131801869253E-3   -2.802680364581438
 1.100000000000000E8     1.725484332287105E-3   -3.111632977739671
 1.200000000000000E8     7.921526756243422E-3   -3.368117639223252
 1.300000000000000E8     1.125406378466545E-2   -3.626762526492743
 1.400000000000000E8     1.359379178156313E-2   -3.901971554641630
 1.500000000000000E8     9.047797653448856E-3   -4.207154476853929
 1.600000000000000E8     3.177012117973972E-3   -4.527537798844724
 1.700000000000000E8     2.852847419966018E-3   -4.822259811857681
 1.800000000000000E8     6.533361746078636E-3   -5.059104107722242
 1.900000000000000E8     9.977236118898090E-3   -5.301734387574847
 2.000000000000000E8     9.762859686745604E-3   -5.585149700964440
 2.100000000000000E8     8.017742084919385E-3   -5.900286789270840
 2.200000000000000E8     3.144378896706134E-3   -6.216491155440041
 2.300000000000000E8     9.448084130742680E-4   -6.518858864477452
 2.400000000000000E8     2.515505576401506E-3   -6.778089352772640
 2.500000000000000E8     4.048565590894902E-3   -7.027489736964530
 2.600000000000000E8     7.104365410599097E-3   -7.313864326324641
 2.700000000000000E8     4.315824052224027E-3   -7.610689501148503
 2.800000000000000E8     3.297229860278919E-3   -7.897095133624686
 2.900000000000000E8     4.021311910441703E-3   -8.172909390852849
 3.000000000000000E8     5.977811434577067E-3   -8.443963884713305
 3.100000000000000E8     4.171724878684418E-3   -8.719420532899212
 3.200000000000000E8     3.763539067376224E-3   -9.018352215597455
 3.300000000000000E8     2.825150249842040E-3   -9.324792233343482
 3.400000000000000E8     3.437096452255478E-3   -9.596788405476623
 3.500000000000000E8     4.379450316306717E-3   -9.851061641216802
 3.600000000000000E8     7.259560252404962E-3   -1.008189545514997E1
 3.700000000000000E8     8.540893460657728E-3   -1.034872017092260E1
 3.800000000000000E8     8.246629571682689E-3   -1.070476305307100E1
 3.900000000000000E8     6.822665628953965E-3   -1.102785662550785E1
 4.000000000000000E8     3.966862830388634E-3   -1.131691421940292E1
 4.100000000000000E8     4.361657834702533E-3   -1.156780774832137E1
 4.200000000000000E8     3.663496896573553E-3   -1.182953649857298E1
 4.300000000000000E8     5.422249809675823E-3   -1.210732050614751E1
 4.400000000000000E8     6.113865802030714E-3   -1.239991874914088E1
 4.500000000000000E8     5.712679516489922E-3   -1.269284515366676E1
 4.600000000000000E8     5.363081468342593E-3   -1.297347386469468E1
 4.700000000000000E8     5.336638511671345E-3   -1.325639122417481E1
 4.800000000000000E8     6.786320661466484E-3   -1.354517838308125E1
 4.900000000000000E8     7.551135077143640E-3   -1.383055447054054E1
 5.000000000000000E8     6.423095469200593E-3   -1.412076040657145E1
 5.100000000000000E8     7.544298468688256E-3   -1.438781600134926E1
 5.200000000000000E8     6.090782851754793E-3   -1.464220000506142E1
 5.300000000000000E8     7.817085862213113E-3   -1.491707210210127E1
 5.400000000000000E8     4.553354877538425E-3   -1.520022359633904E1
 5.500000000000000E8     5.760542989107017E-3   -1.549863311619951E1
 5.600000000000000E8     3.515307985448645E-3   -1.578563913165597E1
 5.700000000000000E8     4.367851765933737E-3   -1.607004081398383E1
 5.800000000000000E8     3.131260801685430E-3   -1.633532739706753E1
 5.900000000000000E8     2.437514752297168E-3   -1.662164297748835E1
 6.000000000000000E8     3.962804797312233E-3   -1.692188096358261E1
 6.100000000000000E8     3.782152163739721E-3   -1.721735359955891E1
 6.200000000000000E8     4.945815462977406E-3   -1.751719698525335E1
 6.300000000000000E8     5.295178701144975E-3   -1.778576684853821E1
 6.400000000000000E8     2.155782486332508E-3   -1.806373713134609E1
 6.500000000000000E8     1.969350020298349E-3   -1.835397190402159E1
 6.600000000000000E8     3.270275580766687E-3   -1.862007112358267E1
 6.700000000000000E8     2.509782459475345E-3   -1.890251708448306E1
 6.800000000000000E8     2.195294825938152E-3   -1.917854150048495E1
 6.900000000000000E8     2.076971604559145E-4   -1.944362954338681E1
 7.000000000000000E8     2.617847880813137E-4   -1.971029460367960E1
 7.100000000000000E8     6.220866746692410E-4   -1.999236815393781E1
 7.200000000000000E8     1.239600719745909E-3   -2.027603034917412E1
 7.300000000000000E8     5.013524057977595E-4   -2.055607074261160E1
 7.400000000000000E8    -1.647166446244952E-4   -2.083143519945448E1
 7.500000000000000E8    -1.474856147823862E-3   -2.110825164712560E1
 7.600000000000000E8    -2.224061986589391E-3   -2.139248175442290E1
 7.700000000000000E8    -1.787532198837061E-3   -2.168375031727683E1
 7.800000000000000E8    -2.089833918694409E-3   -2.198814673550443E1
 7.900000000000000E8    -1.532941087586141E-3   -2.227864288531898E1
 8.000000000000000E8    -1.286795917219339E-3   -2.257177850642639E1
 8.100000000000000E8    -3.256125184071858E-3   -2.285873090566908E1
 8.200000000000000E8    -2.883753941276121E-3   -2.313844873968542E1
 8.300000000000000E8    -1.851734152256760E-3   -2.342411607844561E1
 8.400000000000000E8    -2.215991150448629E-3   -2.369294657901526E1
 8.500000000000000E8    -2.011080707277495E-3   -2.396101961356269E1
 8.600000000000000E8    -2.458443962635327E-3   -2.423153209351438E1
 8.700000000000000E8    -1.216172779416933E-3   -2.449956186032854E1
 8.800000000000000E8     1.767663222645286E-4   -2.476385209959398E1
 8.900000000000000E8    -9.066328616774591E-5   -2.504715577494349E1
 9.000000000000000E8     3.959561332838749E-4   -2.532572555956411E1
 9.100000000000000E8    -6.247726216252787E-4   -2.560239398432898E1
 9.200000000000000E8    -1.006434187259426E-3   -2.588546528255062E1
 9.300000000000000E8    -1.784232912881299E-3   -2.617197570264126E1
 9.400000000000000E8     5.973828350066991E-4   -2.645617232933800E1
 9.500000000000000E8     6.967106691105889E-4   -2.675027815040309E1
 9.600000000000000E8    -9.075585329662159E-4   -2.703979172003804E1
 9.700000000000000E8    -1.486289189681501E-3   -2.732847075158341E1
 9.800000000000000E8    -2.039132829994454E-3   -2.760739574879442E1
 9.900000000000000E8    -2.135820768851603E-3   -2.788748848900014E1
 1.000000000000000E9    -1.574736079414813E-3   -2.816671255840908E1
 1.010000000000000E9    -1.300048547353409E-3   -2.843222111413675E1
 1.020000000000000E9    -1.238066774981409E-3   -2.869827453360353E1
 1.030000000000000E9    -1.326066357438281E-3   -2.897053033901724E1
 1.040000000000000E9    -1.340407698243571E-3   -2.923784675451228E1
 1.050000000000000E9    -5.307685107092999E-4   -2.950496891933483E1
 1.060000000000000E9     5.321066987396583E-4   -2.977640466780486E1
 1.070000000000000E9     7.676788906080193E-4   -3.004542938729416E1
 1.080000000000000E9     1.540775037303601E-3   -3.031601331997758E1
 1.090000000000000E9     1.241638813830969E-3   -3.058836398213862E1
 1.100000000000000E9    -3.675569222526584E-4   -3.087415876246751E1
 1.110000000000000E9    -1.001469698337943E-3   -3.117341148624914E1
 1.120000000000000E9    -7.291276637462082E-4   -3.147680353685782E1
 1.130000000000000E9     4.469542744834938E-4   -3.177891991708866E1
 1.140000000000000E9    -1.765494325009503E-5   -3.207462677503039E1
 1.150000000000000E9     1.984437277711985E-4   -3.236462957483591E1
 1.160000000000000E9     3.992567636571449E-4   -3.263933948439668E1
 1.170000000000000E9    -4.535910020313257E-5   -3.291585118468851E1
 1.180000000000000E9    -3.318611812964609E-4   -3.320193812900911E1
 1.190000000000000E9    -1.025840906307141E-3   -3.348282511703397E1
 1.200000000000000E9    -1.259171519555596E-3   -3.377410116195084E1
 1.210000000000000E9    -2.364018222304459E-3   -3.405009382713568E1
 1.220000000000000E9    -2.680319358993890E-3   -3.432854272615717E1
 1.230000000000000E9    -2.642007789563554E-3   -3.461812235170109E1
 1.240000000000000E9    -2.704394281262318E-3   -3.490204987541387E1
 1.250000000000000E9    -2.725799012904100E-3   -3.518087261256079E1
 1.260000000000000E9    -3.530540678702659E-3   -3.545743707091834E1
 1.270000000000000E9    -4.503513356474032E-3   -3.572689806217824E1
 1.280000000000000E9    -6.667813311376539E-3   -3.600938528136007E1
 1.290000000000000E9    -9.409149165443260E-3   -3.629870027521729E1
 1.300000000000000E9    -1.253047064276327E-2   -3.659045231153387E1
 1.310000000000000E9    -1.317644496622809E-2   -3.689646948412279E1
 1.320000000000000E9    -1.148138131512020E-2   -3.720257830868012E1
 1.330000000000000E9    -1.023951687008707E-2   -3.750482843003004E1
 1.340000000000000E9    -5.842100396376287E-3   -3.778471227916611E1
 1.350000000000000E9    -2.762815264407174E-3   -3.805441836304912E1
 1.360000000000000E9    -1.923202847658935E-3   -3.832468807259178E1
 1.370000000000000E9    -1.600089632036421E-3   -3.858440093366298E1
 1.380000000000000E9     2.876235731726936E-4   -3.884743394675053E1
 1.390000000000000E9     1.817858141106151E-3   -3.910921361509141E1
 1.400000000000000E9    -1.203177153832897E-4   -3.937528439246786E1
 1.410000000000000E9    -2.134773771847477E-3   -3.964057953596728E1
 1.420000000000000E9    -4.759397342098601E-3   -3.991954115930717E1
 1.430000000000000E9    -6.549884640077666E-3   -4.020326213431129E1
 1.440000000000000E9    -7.284546438894278E-3   -4.049516205831276E1
 1.450000000000000E9    -7.638522623025975E-3   -4.079218983153875E1
 1.460000000000000E9    -7.096982793119599E-3   -4.108967638057857E1
 1.470000000000000E9    -5.377706786752500E-3   -4.138791193667598E1
 1.480000000000000E9    -2.798063733718023E-3   -4.164092866181876E1
 1.490000000000000E9    -2.794755478344178E-3   -4.194003876613752E1
 1.500000000000000E9    -5.100562252304113E-3   -4.220354297508712E1
 1.510000000000000E9    -6.594068197564819E-3   -4.247305838990975E1
 1.520000000000000E9    -7.068666805172865E-3   -4.274830174250089E1
 1.530000000000000E9    -8.591330937981607E-3   -4.302750607902129E1
 1.540000000000000E9    -9.183997953916605E-3   -4.329195315291145E1
 1.550000000000000E9    -1.014851912793261E-2   -4.355936705253006E1
 1.560000000000000E9    -1.008553671655685E-2   -4.382472451677857E1
 1.570000000000000E9    -9.169191079213155E-3   -4.408992903801986E1
 1.580000000000000E9    -9.541020436609485E-3   -4.435695053376446E1
 1.590000000000000E9    -8.526424745366308E-3   -4.462379799469029E1
 1.600000000000000E9    -7.632309180069977E-3   -4.489328284726024E1
 1.610000000000000E9    -8.293417008938856E-3   -4.516678702997923E1
 1.620000000000000E9    -9.340276215582690E-3   -4.545699873166789E1
 1.630000000000000E9    -9.905504088949503E-3   -4.574844531549783E1
 1.640000000000000E9    -1.030201076305910E-2   -4.603546018780626E1
 1.650000000000000E9    -1.113950795890411E-2   -4.632407716368470E1
 1.660000000000000E9    -1.301217344424126E-2   -4.661064478636003E1
 1.670000000000000E9    -1.543596351477189E-2   -4.689333328856818E1
 1.680000000000000E9    -1.577555188500169E-2   -4.718134683160083E1
 1.690000000000000E9    -1.542639693250404E-2   -4.747808531097931E1
 1.700000000000000E9    -1.598099898064952E-2   -4.776902346441259E1
 1.710000000000000E9    -1.540625727490033E-2   -4.803704832699864E1
 1.720000000000000E9    -1.531457986601455E-2   -4.830948452284255E1
 1.730000000000000E9    -1.555675544264256E-2   -4.858028791468824E1
 1.740000000000000E9    -1.594486957021853E-2   -4.884764930046465E1
 1.750000000000000E9    -1.531347685910534E-2   -4.910886544276438E1
 1.760000000000000E9    -1.356242766666714E-2   -4.937829059356392E1
 1.770000000000000E9    -1.278379896061143E-2   -4.965137528143674E1
 1.780000000000000E9    -1.471606303728000E-2   -4.992149803336019E1
 1.790000000000000E9    -1.796878546125640E-2   -5.019316649312703E1
 1.800000000000000E9    -2.050377905563141E-2   -5.047788551058160E1
 1.810000000000000E9    -2.170204310915402E-2   -5.076876298970835E1
 1.820000000000000E9    -2.211273192031597E-2   -5.105337207234315E1
 1.830000000000000E9    -2.388735657134607E-2   -5.134608692729341E1
 1.840000000000000E9    -2.379729651938257E-2   -5.163545670679628E1
 1.850000000000000E9    -2.365099318245935E-2   -5.193369709263168E1
 1.860000000000000E9    -2.413338179992138E-2   -5.223071841948061E1
 1.870000000000000E9    -2.427884787217108E-2   -5.250433844413039E1
 1.880000000000000E9    -1.836236504131205E-2   -5.275752722451677E1
 1.890000000000000E9    -1.351077467373522E-2   -5.299697688472477E1
 1.900000000000000E9    -1.554122707769366E-2   -5.322397196066776E1
 1.910000000000000E9    -2.215545971672900E-2   -5.349811344226858E1
 1.920000000000000E9    -2.294527696103695E-2   -5.377169726149920E1
 1.930000000000000E9    -2.360564126993080E-2   -5.405022704660724E1
 1.940000000000000E9    -2.307927974599410E-2   -5.432746738686081E1
 1.950000000000000E9    -2.300647344106052E-2   -5.461306044858931E1
 1.960000000000000E9    -2.436444463987840E-2   -5.489899232517264E1
 1.970000000000000E9    -2.538761373210588E-2   -5.519875696382078E1
 1.980000000000000E9    -2.425556297082736E-2   -5.550042191368719E1
 1.990000000000000E9    -2.314673932294256E-2   -5.579175563799517E1
 2.000000000000000E9    -2.261991846821963E-2   -5.606541519677518E1
 2.010000000000000E9    -2.849667671544761E-2   -5.630119159422474E1
 2.020000000000000E9    -3.454942129969099E-2   -5.655166686389373E1
 2.030000000000000E9    -3.460490666042006E-2   -5.684943091087688E1
 2.040000000000000E9    -3.388572331513076E-2   -5.712241845235819E1
 2.050000000000000E9    -3.294674655199110E-2   -5.740258023440972E1
 2.060000000000000E9    -3.269417582200121E-2   -5.766503969965706E1
 2.070000000000000E9    -3.229241980859301E-2   -5.792115543762152E1
 2.080000000000000E9    -3.334481954198799E-2   -5.819426619288374E1
 2.090000000000000E9    -3.357617575341850E-2   -5.845895141260593E1
 2.100000000000000E9    -3.280066696268316E-2   -5.872236985356516E1
 2.110000000000000E9    -3.124917907258412E-2   -5.898682955565348E1
 2.120000000000000E9    -2.953973376708967E-2   -5.925392164750780E1
 2.130000000000000E9    -2.938864258836450E-2   -5.953183426203972E1
 2.140000000000000E9    -2.900161028601674E-2   -5.981884437320623E1
 2.150000000000000E9    -2.906482476565713E-2   -6.010924799499600E1
 2.160000000000000E9    -2.958469182029521E-2   -6.040500536993463E1
 2.170000000000000E9    -2.829370906578741E-2   -6.069496186832286E1
 2.180000000000000E9    -2.709182644103971E-2   -6.098776925896603E1
 2.190000000000000E9    -2.593102726638678E-2   -6.128014328473109E1
 2.200000000000000E9    -2.457142781328669E-2   -6.157384264989761E1
 2.210000000000000E9    -2.369719879566946E-2   -6.185086847050275E1
 2.220000000000000E9    -2.214797783759741E-2   -6.212599857009278E1
 2.230000000000000E9    -1.979699211782402E-2   -6.237741081270224E1
 2.240000000000000E9    -1.925270926605212E-2   -6.264596520043239E1
 2.250000000000000E9    -2.035123550651778E-2   -6.292711628400810E1
 2.260000000000000E9    -2.118131978325805E-2   -6.319957544249987E1
 2.270000000000000E9    -2.109697558343854E-2   -6.345968422807383E1
 2.280000000000000E9    -2.081968130036938E-2   -6.373449297863453E1
 2.290000000000000E9    -1.955468621194870E-2   -6.399565912166480E1
 2.300000000000000E9    -1.864679694835708E-2   -6.426901682583568E1
 2.310000000000000E9    -1.719748513680584E-2   -6.453985768580554E1
 2.320000000000000E9    -1.605687251220466E-2   -6.481742327727783E1
 2.330000000000000E9    -1.511305332279610E-2   -6.509587992945724E1
 2.340000000000000E9    -1.432691445805508E-2   -6.537998798750323E1
 2.350000000000000E9    -1.379046046996640E-2   -6.566971820994817E1
 2.360000000000000E9    -1.413423335006106E-2   -6.595891541289343E1
 2.370000000000000E9    -1.363212373523951E-2   -6.624534752693957E1
 2.380000000000000E9    -1.347905285264975E-2   -6.652566040980093E1
 2.390000000000000E9    -1.261790941704296E-2   -6.680907814166281E1
 2.400000000000000E9    -1.140050283347509E-2   -6.707990702598902E1
 2.410000000000000E9    -9.153459293752421E-3   -6.733377742276267E1
 2.420000000000000E9    -8.555625636562123E-3   -6.759534131183052E1
 2.430000000000000E9    -9.439207911874220E-3   -6.784265392594247E1
 2.440000000000000E9    -1.159584685722073E-2   -6.810827504598603E1
 2.450000000000000E9    -1.226078602385186E-2   -6.836538008661724E1
 2.460000000000000E9    -1.035361997519594E-2   -6.864876493158428E1
 2.470000000000000E9    -7.686665657759124E-3   -6.891412278306400E1
 2.480000000000000E9    -6.667550869255474E-3   -6.917860842202076E1
 2.490000000000000E9    -6.810374401405785E-3   -6.944128350171184E1
 2.500000000000000E9    -6.337783277275364E-3   -6.971585868447119E1
 2.510000000000000E9    -6.386880889182281E-3   -6.999918438323637E1
 2.520000000000000E9    -6.601900761184391E-3   -7.027634247365653E1
 2.530000000000000E9    -6.399444960675254E-3   -7.056238108152884E1
 2.540000000000000E9    -6.234180764200820E-3   -7.084556172949854E1
 2.550000000000000E9    -6.846650484700336E-3   -7.112054966566589E1
 2.560000000000000E9    -6.616117792659954E-3   -7.140217936292696E1
 2.570000000000000E9    -6.207589803835755E-3   -7.167319856422549E1
 2.580000000000000E9    -6.820243115797706E-3   -7.194250466613850E1
 2.590000000000000E9    -5.978811205153939E-3   -7.220660564973439E1
 2.600000000000000E9    -8.859286284124645E-3   -7.247898708545227E1
 2.610000000000000E9    -7.232822062723594E-3   -7.275023004428058E1
 2.620000000000000E9    -4.746554092886858E-3   -7.301985360613088E1
 2.630000000000000E9    -1.597496403511104E-4   -7.327840823309047E1
 2.640000000000000E9     3.281489043656307E-3   -7.354001169578794E1
 2.650000000000000E9     4.997763286201438E-3   -7.380830527552514E1
 2.660000000000000E9     6.805343714324647E-3   -7.407363442612457E1
 2.670000000000000E9     4.900663392662735E-3   -7.432728660928672E1
 2.680000000000000E9     2.472899804345815E-3   -7.460974250027166E1
 2.690000000000000E9     1.817650222156662E-3   -7.488972238259706E1
 2.700000000000000E9     1.356698696735206E-3   -7.517974674995249E1
 2.710000000000000E9     1.452564297493084E-3   -7.545015000786805E1
 2.720000000000000E9     1.683431849620943E-3   -7.571126752901242E1
 2.730000000000000E9    -5.525183174478433E-4   -7.599098993180850E1
 2.740000000000000E9    -2.692762575297250E-3   -7.626874631677259E1
 2.750000000000000E9    -1.993396798842175E-3   -7.655500774018941E1
 2.760000000000000E9    -3.058927570494992E-3   -7.684165100946799E1
 2.770000000000000E9    -8.524796369540307E-4   -7.711333275180164E1
 2.780000000000000E9     2.469867555326868E-3   -7.737475836593265E1
 2.790000000000000E9     5.497892417277325E-3   -7.763333608981810E1
 2.800000000000000E9     9.031000193632368E-3   -7.789196419038423E1
 2.810000000000000E9     8.637120805878376E-3   -7.814523650597587E1
 2.820000000000000E9     7.738510205286147E-3   -7.840516353494283E1
 2.830000000000000E9     6.618815606648357E-3   -7.867887848932294E1
 2.840000000000000E9     5.225573280947756E-3   -7.894895573354536E1
 2.850000000000000E9     4.279001570356034E-3   -7.923705359866892E1
 2.860000000000000E9     4.202573721083467E-3   -7.952524847044012E1
 2.870000000000000E9     4.794977069246037E-3   -7.980126604100801E1
