#  HZ   S   DB   R     50.00 
! Rohde & Schwarz Vector Network Analyzer 
! Rohde-Schwarz,ZNA26-4Port,1332450024101475,2.90
! Created: UTC 5/23/2025, 8:18:50 PM
! freq[Hz]                db:S33                  ang:S33
 1.000000000000000E7    -3.983346766919055E1     2.364821093655903E1
 1.424500000000000E8    -4.783602215722534E1     7.187165693564961
 2.749000000000000E8    -4.676320024524426E1    -3.510696482960648
 4.073500000000000E8    -4.643852038319415E1    -2.772716297593299E1
 5.398000000000000E8    -4.620264547098149E1    -4.368444611908971E1
 6.722500000000000E8    -4.444219604532307E1    -5.898682810260418E1
 8.047000000000000E8    -4.388939608356121E1    -7.351532654024687E1
 9.371500000000000E8    -4.301449539442979E1    -8.603493579979158E1
 1.069600000000000E9    -4.192564300889703E1    -1.032802122118752E2
 1.202050000000000E9    -4.064967096362490E1    -1.162507617132026E2
 1.334500000000000E9    -3.954330170442334E1    -1.280797303592734E2
 1.466950000000000E9    -3.861417765117380E1    -1.383058050994461E2
 1.599400000000000E9    -3.782905836160123E1    -1.485374820291686E2
 1.731850000000000E9    -3.708643731965985E1    -1.571244850075345E2
 1.864300000000000E9    -3.655971888224997E1    -1.658499243622204E2
 1.996750000000000E9    -3.627315373501405E1    -1.735886639685183E2
 2.129200000000000E9    -3.571301320077603E1     1.791059347580733E2
 2.261650000000000E9    -3.548521817196981E1     1.720456194933296E2
 2.394100000000000E9    -3.550641927490379E1     1.659163941546729E2
 2.526550000000000E9    -3.565977453776164E1     1.593112642495851E2
 2.659000000000000E9    -3.588637479370727E1     1.515278467982536E2
 2.791450000000000E9    -3.612642225028872E1     1.438108074923279E2
 2.923900000000000E9    -3.614307028917387E1     1.385910074405359E2
 3.056350000000000E9    -3.668249511287853E1     1.321052483993648E2
 3.188800000000000E9    -3.730040562884294E1     1.246889383714337E2
 3.321250000000000E9    -3.779605525212881E1     1.163063177890863E2
 3.453700000000000E9    -3.852213008949179E1     1.071305833156552E2
 3.586150000000000E9    -3.912929866170738E1     1.000797976576475E2
 3.718600000000000E9    -4.020366671520286E1     9.083557663768309E1
 3.851050000000000E9    -4.107899033956060E1     8.670461184237539E1
 3.983500000000000E9    -4.222709275927936E1     8.511562320079769E1
 4.115950000000000E9    -4.359052422793220E1     8.541736478771267E1
 4.248400000000000E9    -4.553712800179866E1     8.884573847886686E1
 4.380850000000000E9    -4.859866197215112E1     9.623636693408341E1
 4.513300000000000E9    -4.853756883097677E1     1.075824617433303E2
 4.645750000000000E9    -4.677586598834748E1     1.281412810474190E2
 4.778200000000000E9    -4.399130397405293E1     1.448530356674779E2
 4.910650000000000E9    -4.116175753512783E1     1.547796057180207E2
 5.043100000000000E9    -3.937704569205528E1     1.582380472115826E2
 5.175550000000000E9    -3.719817344616264E1     1.591994634226332E2
 5.308000000000000E9    -3.530925264325327E1     1.573940346047431E2
 5.440450000000000E9    -3.392869349268068E1     1.539215011685157E2
 5.572900000000000E9    -3.266332358550156E1     1.509782258404380E2
 5.705350000000000E9    -3.160431260047975E1     1.465702561356413E2
 5.837800000000000E9    -3.051130987698347E1     1.424366513038470E2
 5.970250000000000E9    -2.968738803213823E1     1.393117279339041E2
 6.102700000000000E9    -2.909632487781813E1     1.360651087622358E2
 6.235150000000000E9    -2.874206320919883E1     1.321389317315976E2
 6.367600000000000E9    -2.843750694005140E1     1.279566070122005E2
 6.500050000000000E9    -2.806918100943755E1     1.230051137359152E2
 6.632500000000000E9    -2.782398267323105E1     1.191004869082693E2
 6.764950000000000E9    -2.769879870877550E1     1.152525201167039E2
 6.897400000000000E9    -2.769904224876848E1     1.109944724786358E2
 7.029850000000000E9    -2.777209974420854E1     1.075083383673220E2
 7.162300000000000E9    -2.814284889814395E1     1.044413965918804E2
 7.294750000000000E9    -2.856451099794813E1     1.013416687353743E2
 7.427200000000000E9    -2.913740463331847E1     9.824051520621097E1
 7.559650000000000E9    -2.984023112106074E1     9.565571938211876E1
 7.692100000000000E9    -3.061967733248068E1     9.516623728746806E1
 7.824550000000000E9    -3.165037118931157E1     9.788668766101921E1
 7.957000000000000E9    -3.262269608231404E1     1.038368375953984E2
 8.089450000000000E9    -3.384190711043134E1     1.135500161052778E2
 8.221900000000000E9    -3.395080212400693E1     1.264092963094622E2
 8.354350000000000E9    -3.325792776326330E1     1.378867486549524E2
 8.486800000000000E9    -3.190838574920196E1     1.456535508195645E2
 8.619250000000000E9    -3.055221030489700E1     1.499709454641806E2
 8.751700000000000E9    -2.883665907664884E1     1.514406039249659E2
 8.884150000000000E9    -2.712092442973493E1     1.506317040005871E2
 9.016600000000000E9    -2.556803606638430E1     1.481823550895303E2
 9.149050000000000E9    -2.439906713766341E1     1.432102275986893E2
 9.281500000000000E9    -2.364650513901145E1     1.376812849981254E2
 9.413950000000000E9    -2.296511190127191E1     1.316848113633151E2
 9.546400000000000E9    -2.241971578555560E1     1.253854794692606E2
 9.678850000000000E9    -2.184242101937883E1     1.195842308457881E2
 9.811300000000000E9    -2.142470414629598E1     1.138022866839060E2
 9.943750000000000E9    -2.108220952978184E1     1.082130861283515E2
 1.007620000000000E+10  -2.080935272538459E1     1.022429730555685E2
 1.020865000000000E+10  -2.067883688484515E1     9.615332866116363E1
 1.034110000000000E+10  -2.072669433652173E1     8.961617229399236E1
 1.047355000000000E+10  -2.081866420422503E1     8.316021287750371E1
 1.060600000000000E+10  -2.092846800232205E1     7.666720529286867E1
 1.073845000000000E+10  -2.114765028208792E1     7.157238880333036E1
 1.087090000000000E+10  -2.151792021457791E1     6.726659003235139E1
 1.100335000000000E+10  -2.205465687737452E1     6.239700335512825E1
 1.113580000000000E+10  -2.276085044781282E1     5.826908640622118E1
 1.126825000000000E+10  -2.345670302135098E1     5.416918405037432E1
 1.140070000000000E+10  -2.430894478357624E1     5.135831866923120E1
 1.153315000000000E+10  -2.526258915799847E1     5.041853371160173E1
 1.166560000000000E+10  -2.629536516657338E1     5.138520669279661E1
 1.179805000000000E+10  -2.730087706571189E1     5.652439746020921E1
 1.193050000000000E+10  -2.768823101748183E1     6.352797484590413E1
 1.206295000000000E+10  -2.769729799218950E1     7.047240062919776E1
 1.219540000000000E+10  -2.731320068366565E1     7.588045472890772E1
 1.232785000000000E+10  -2.672885351208027E1     7.757618639656080E1
 1.246030000000000E+10  -2.613196615706698E1     7.863176620536827E1
 1.259275000000000E+10  -2.541218770539216E1     7.842889577538125E1
 1.272520000000000E+10  -2.490512386063583E1     7.871899457191707E1
 1.285765000000000E+10  -2.433019716519301E1     7.909371410004762E1
 1.299010000000000E+10  -2.374272363718069E1     7.849143775828475E1
 1.312255000000000E+10  -2.304831719520071E1     7.616343673104336E1
 1.325500000000000E+10  -2.235750010948763E1     7.294638544937170E1
 1.338745000000000E+10  -2.194266911091159E1     6.892880358592504E1
 1.351990000000000E+10  -2.164474906250306E1     6.443899220875768E1
 1.365235000000000E+10  -2.151810271675381E1     5.876353897209387E1
 1.378480000000000E+10  -2.164636978577471E1     5.384621691816160E1
 1.391725000000000E+10  -2.189087056276638E1     4.954173591761169E1
 1.404970000000000E+10  -2.238008098289340E1     4.566644921386199E1
 1.418215000000000E+10  -2.303271064992188E1     4.286679015161279E1
 1.431460000000000E+10  -2.380822345542240E1     4.234812839744728E1
 1.444705000000000E+10  -2.465890606058219E1     4.354494721445454E1
 1.457950000000000E+10  -2.534688142248337E1     4.796208010669703E1
 1.471195000000000E+10  -2.576483958462001E1     5.435423706959023E1
 1.484440000000000E+10  -2.539978241291847E1     6.090601611783118E1
 1.497685000000000E+10  -2.455186234149561E1     6.644535686693251E1
 1.510930000000000E+10  -2.340934419993214E1     6.891877963681213E1
 1.524175000000000E+10  -2.227927381071618E1     6.814277600267177E1
 1.537420000000000E+10  -2.121779093840578E1     6.481594187057379E1
 1.550665000000000E+10  -2.024993615856202E1     6.010397616621605E1
 1.563910000000000E+10  -1.944660753397532E1     5.366174304410076E1
 1.577155000000000E+10  -1.874467862848769E1     4.677696899997542E1
 1.590400000000000E+10  -1.825293006903329E1     3.881628804304338E1
 1.603645000000000E+10  -1.784019827582125E1     2.993075976869656E1
 1.616890000000000E+10  -1.749865467723139E1     2.067442939367772E1
 1.630135000000000E+10  -1.737337072751594E1     1.043337148991264E1
 1.643380000000000E+10  -1.744698913262965E1    -1.002205888884094
 1.656625000000000E+10  -1.763819823946159E1    -1.338432049110082E1
 1.669870000000000E+10  -1.789546537018506E1    -2.588341072185783E1
 1.683115000000000E+10  -1.827132405346604E1    -3.898942995290221E1
 1.696360000000000E+10  -1.862693442393817E1    -5.221489379507488E1
 1.709605000000000E+10  -1.904136001458303E1    -6.733640258005089E1
 1.722850000000000E+10  -1.941656691402775E1    -8.395175289252840E1
 1.736095000000000E+10  -1.961068192430594E1    -1.019184142881965E2
 1.749340000000000E+10  -1.956846025196501E1    -1.206992529911560E2
 1.762585000000000E+10  -1.933745719197298E1    -1.396886229421815E2
 1.775830000000000E+10  -1.895333436619696E1    -1.573510238991134E2
 1.789075000000000E+10  -1.849041206400442E1    -1.748270055805630E2
 1.802320000000000E+10  -1.795733705459934E1     1.678713873826279E2
 1.815565000000000E+10  -1.731967877178255E1     1.513875124927930E2
 1.828810000000000E+10  -1.661922737087972E1     1.367247467146447E2
 1.842055000000000E+10  -1.619836584615938E1     1.223830744563499E2
 1.855300000000000E+10  -1.568547857424327E1     1.090658498381059E2
 1.868545000000000E+10  -1.532444991110890E1     9.567588696754231E1
 1.881790000000000E+10  -1.499131428048403E1     8.157876872094715E1
 1.895035000000000E+10  -1.472454925627483E1     6.770856285227157E1
 1.908280000000000E+10  -1.455587852899005E1     5.416894198278646E1
 1.921525000000000E+10  -1.451804176743772E1     4.123650737904061E1
 1.934770000000000E+10  -1.471208543555671E1     2.870957091246851E1
 1.948015000000000E+10  -1.494486828780771E1     1.399063250714160E1
 1.961260000000000E+10  -1.522958576578632E1    -8.778452616023276E-1
 1.974505000000000E+10  -1.546820491099624E1    -1.604759834744334E1
 1.987750000000000E+10  -1.580517591740162E1    -3.109647624106810E1
 2.000995000000000E+10  -1.630743585882997E1    -4.711164006133321E1
 2.014240000000000E+10  -1.687299958210772E1    -6.500158206867026E1
 2.027485000000000E+10  -1.734507168817277E1    -8.431889811538824E1
 2.040730000000000E+10  -1.749603808094706E1    -1.046739364893841E2
 2.053975000000000E+10  -1.751973191154354E1    -1.249667433928885E2
 2.067220000000000E+10  -1.749756875303909E1    -1.447024712547732E2
 2.080465000000000E+10  -1.736910138871459E1    -1.643618622423345E2
 2.093710000000000E+10  -1.711803794933652E1     1.757692659879530E2
 2.106955000000000E+10  -1.673393293514178E1     1.564125812128299E2
 2.120200000000000E+10  -1.626753076966418E1     1.385609787130874E2
 2.133445000000000E+10  -1.591742106582752E1     1.222184135621122E2
 2.146690000000000E+10  -1.576893207559353E1     1.057041402272826E2
 2.159935000000000E+10  -1.565912269229410E1     8.875647606327973E1
 2.173180000000000E+10  -1.555704243719524E1     7.149128080385239E1
 2.186425000000000E+10  -1.545710686796390E1     5.449148352953107E1
 2.199670000000000E+10  -1.542221792495309E1     3.747032639285145E1
 2.212915000000000E+10  -1.608393558108495E1     2.016862488243990E1
 2.226160000000000E+10  -1.575044540584001E1     5.396178232975348
 2.239405000000000E+10  -1.592053230617323E1    -1.429954811519903E1
 2.252650000000000E+10  -1.584666695631096E1    -3.562747389713468E1
 2.265895000000000E+10  -1.563099685559076E1    -5.598212225184351E1
 2.279140000000000E+10  -1.529963157831016E1    -7.566935182413788E1
 2.292385000000000E+10  -1.501832776225125E1    -9.561843992693356E1
 2.305630000000000E+10  -1.459432865036614E1    -1.157308830685032E2
 2.318875000000000E+10  -1.392815650472823E1    -1.356042421077794E2
 2.332120000000000E+10  -1.313377298976907E1    -1.539005586490702E2
 2.345365000000000E+10  -1.242722306299271E1    -1.703545629050857E2
 2.358610000000000E+10  -1.184611941312171E1     1.739336242977107E2
 2.371855000000000E+10  -1.137205708161082E1     1.583728115978802E2
 2.385100000000000E+10  -1.092499399838559E1     1.430939123308590E2
 2.398345000000000E+10  -1.052417949933847E1     1.276761261871360E2
 2.411590000000000E+10  -1.015984398670117E1     1.130523019835050E2
 2.424835000000000E+10  -9.975804717870517       9.874719453206272E1
 2.438080000000000E+10  -1.013846618423767E1     8.544335257740558E1
 2.451325000000000E+10  -9.990292972672192       7.247989336095793E1
 2.464570000000000E+10  -9.936163977789981       5.730326046348841E1
 2.477815000000000E+10  -9.945034491949210       4.181245376603874E1
 2.491060000000000E+10  -9.999568122218097       2.619374862107414E1
 2.504305000000000E+10  -1.020643527535921E1     1.050807443938766E1
 2.517550000000000E+10  -1.044754947069158E1    -6.370585160180490
 2.530795000000000E+10  -1.071081001584094E1    -2.443885819986270E1
 2.544040000000000E+10  -1.084117545370205E1    -4.364318629648803E1
 2.557285000000000E+10  -1.082239424128299E1    -6.332031029159656E1
 2.570530000000000E+10  -1.077499975287863E1    -8.315617084558914E1
 2.583775000000000E+10  -1.065238564074845E1    -1.027300485380750E2
 2.597020000000000E+10  -1.041045990838458E1    -1.224106333860196E2
 2.610265000000000E+10  -9.993512387674553      -1.418367988145743E2
 2.623510000000000E+10  -9.506668560286844      -1.598369026906267E2
 2.636755000000000E+10  -9.065943916488715      -1.764053804783375E2
 2.650000000000000E+10  -8.663915983747430       1.680987097913291E2
