#  HZ   S   DB   R     50.00 
! Rohde & Schwarz Vector Network Analyzer 
! Rohde-Schwarz,ZNA26-4Port,1332450024101475,2.90
! Created: UTC 5/23/2025, 8:18:14 PM
! freq[Hz]                db:S33                  ang:S33
 1.000000000000000E7     1.516656615471231E-1    1.207464480207921
 1.424500000000000E8    -5.038269048910139E-3   -1.679913201044834E1
 2.749000000000000E8    -9.485309784690917E-3   -3.235919306232474E1
 4.073500000000000E8    -1.887220319969677E-2   -4.799617905173452E1
 5.398000000000000E8    -2.833811349308023E-2   -6.363421728879911E1
 6.722500000000000E8    -3.741527520638520E-2   -7.924029115524246E1
 8.047000000000000E8    -5.305049994905913E-2   -9.480812651362398E1
 9.371500000000000E8    -6.268867762307304E-2   -1.102947347234211E2
 1.069600000000000E9    -7.411545940617563E-2   -1.257313928030054E2
 1.202050000000000E9    -8.518725788684482E-2   -1.412217038627188E2
 1.334500000000000E9    -1.022920758093624E-1   -1.566847050347177E2
 1.466950000000000E9    -1.110560287677655E-1   -1.720459715143315E2
 1.599400000000000E9    -1.156539626802737E-1    1.727554824570643E2
 1.731850000000000E9    -1.251727536859378E-1    1.575686796956315E2
 1.864300000000000E9    -1.286398399384951E-1    1.423298677769435E2
 1.996750000000000E9    -1.296367503711398E-1    1.269584454531370E2
 2.129200000000000E9    -1.175199740372983E-1    1.116235553487564E2
 2.261650000000000E9    -1.160316088272381E-1    9.631730108435822E1
 2.394100000000000E9    -1.167213669429245E-1    8.103491573343119E1
 2.526550000000000E9    -1.201555072843046E-1    6.572430408667476E1
 2.659000000000000E9    -1.186485718089210E-1    5.019849352673860E1
 2.791450000000000E9    -1.179847650200634E-1    3.462444423067748E1
 2.923900000000000E9    -1.114335767042975E-1    1.902815938413037E1
 3.056350000000000E9    -1.088560404747371E-1    3.468892500604743
 3.188800000000000E9    -9.997387429960690E-2   -1.202905833877396E1
 3.321250000000000E9    -9.634177745612071E-2   -2.758896251515310E1
 3.453700000000000E9    -9.751815303901820E-2   -4.326798761753585E1
 3.586150000000000E9    -9.579647199846525E-2   -5.898069120606453E1
 3.718600000000000E9    -8.718895599424568E-2   -7.455868447396554E1
 3.851050000000000E9    -8.655314928167770E-2   -9.003308091674884E1
 3.983500000000000E9    -9.438752277357135E-2   -1.055005739911129E2
 4.115950000000000E9    -1.058915279950475E-1   -1.210452869167341E2
 4.248400000000000E9    -1.097229280129935E-1   -1.366653592315631E2
 4.380850000000000E9    -1.111169267651203E-1   -1.522051198416686E2
 4.513300000000000E9    -1.143028939637961E-1   -1.675829178901025E2
 4.645750000000000E9    -1.145639345320778E-1    1.771538598514282E2
 4.778200000000000E9    -1.239191450609893E-1    1.619039257386825E2
 4.910650000000000E9    -1.303364445885080E-1    1.466049076843092E2
 5.043100000000000E9    -1.358745666480096E-1    1.313094088034613E2
 5.175550000000000E9    -1.291658166167264E-1    1.160596369521524E2
 5.308000000000000E9    -1.250137462225167E-1    1.009930278423947E2
 5.440450000000000E9    -1.257047785344873E-1    8.585696327793960E1
 5.572900000000000E9    -1.391147290002182E-1    7.060503289395304E1
 5.705350000000000E9    -1.408674504325176E-1    5.507059272307882E1
 5.837800000000000E9    -1.376080820901044E-1    3.943598506100500E1
 5.970250000000000E9    -1.237182941770915E-1    2.378163383709784E1
 6.102700000000000E9    -1.265822902935508E-1    8.080207337642900
 6.235150000000000E9    -1.281788404877152E-1   -7.849768846118069
 6.367600000000000E9    -1.281952231756568E-1   -2.398930532118562E1
 6.500050000000000E9    -1.255063372581545E-1   -4.028234048737959E1
 6.632500000000000E9    -1.190939735625539E-1   -5.654915409174060E1
 6.764950000000000E9    -1.081358295415585E-1   -7.258314154177295E1
 6.897400000000000E9    -1.046720428246151E-1   -8.838486624369511E1
 7.029850000000000E9    -1.103668927403411E-1   -1.041516321620126E2
 7.162300000000000E9    -1.146058541142278E-1   -1.199215899798554E2
 7.294750000000000E9    -1.082392925376218E-1   -1.354421024471916E2
 7.427200000000000E9    -9.901957129273337E-2   -1.506007829631920E2
 7.559650000000000E9    -9.598603006346051E-2   -1.653704431381753E2
 7.692100000000000E9    -1.038299062912146E-1   -1.798825326400577E2
 7.824550000000000E9    -1.092556006497962E-1    1.656147956554442E2
 7.957000000000000E9    -1.128237007324906E-1    1.511335961101355E2
 8.089450000000000E9    -1.134190338727776E-1    1.367652539623056E2
 8.221900000000000E9    -1.123229628607478E-1    1.225589893226655E2
 8.354350000000000E9    -1.112231387811905E-1    1.083966931980379E2
 8.486800000000000E9    -1.264225567966011E-1    9.402993055690912E1
 8.619250000000000E9    -1.418904952712024E-1    7.919525637791615E1
 8.751700000000000E9    -1.462801203803029E-1    6.402153016358329E1
 8.884150000000000E9    -1.467411350991423E-1    4.864246765507732E1
 9.016600000000000E9    -1.440298856094197E-1    3.304121472213826E1
 9.149050000000000E9    -1.572757301488324E-1    1.705470141051712E1
 9.281500000000000E9    -1.731866058387255E-1    4.872070776470465E-1
 9.413950000000000E9    -1.847255164332934E-1   -1.663369093709771E1
 9.546400000000000E9    -1.801835801606124E-1   -3.407235619647401E1
 9.678850000000000E9    -1.691255410091541E-1   -5.156154288055156E1
 9.811300000000000E9    -1.708969077844373E-1   -6.904733758120926E1
 9.943750000000000E9    -1.737555219682596E-1   -8.657291648807239E1
 1.007620000000000E+10  -1.790824767126915E-1   -1.041626881438642E2
 1.020865000000000E+10  -1.633735445756574E-1   -1.215211595397852E2
 1.034110000000000E+10  -1.358333610006621E-1   -1.383240647198149E2
 1.047355000000000E+10  -1.367822887605699E-1   -1.544110916874780E2
 1.060600000000000E+10  -1.384939104325003E-1   -1.701159506829092E2
 1.073845000000000E+10  -1.387488218053049E-1    1.745672787916892E2
 1.087090000000000E+10  -1.222715180863082E-1    1.596292943911037E2
 1.100335000000000E+10  -1.204930921281754E-1    1.451609412518261E2
 1.113580000000000E+10  -1.177856574585045E-1    1.311756991099602E2
 1.126825000000000E+10  -9.899817132997349E-2    1.175703280785798E2
 1.140070000000000E+10  -1.008383799289375E-1    1.042472162926741E2
 1.153315000000000E+10  -1.156231827903963E-1    9.079510296240444E1
 1.166560000000000E+10  -1.188937781499083E-1    7.716345801532664E1
 1.179805000000000E+10  -1.133838239119976E-1    6.355779209604882E1
 1.193050000000000E+10  -1.044950214916920E-1    4.994255034506511E1
 1.206295000000000E+10  -1.127129609579513E-1    3.605877657674930E1
 1.219540000000000E+10  -1.337037006756314E-1    2.166204104415793E1
 1.232785000000000E+10  -1.398489509830430E-1    6.530644307451347
 1.246030000000000E+10  -1.471083708542548E-1   -9.138128153062564
 1.259275000000000E+10  -1.597938619425353E-1   -2.528761111495782E1
 1.272520000000000E+10  -1.624302520374092E-1   -4.198839046726706E1
 1.285765000000000E+10  -1.811615107775834E-1   -5.929833428105735E1
 1.299010000000000E+10  -2.039949051508449E-1   -7.730761372319574E1
 1.312255000000000E+10  -2.306809809218350E-1   -9.586350582107750E1
 1.325500000000000E+10  -2.248890667050387E-1   -1.145674027855208E2
 1.338745000000000E+10  -2.087985559889902E-1   -1.329806309300448E2
 1.351990000000000E+10  -2.032375380303047E-1   -1.510585390415364E2
 1.365235000000000E+10  -2.185442434007621E-1   -1.688895962509001E2
 1.378480000000000E+10  -2.178291658425666E-1    1.737740410403170E2
 1.391725000000000E+10  -1.932797572549481E-1    1.571044743997454E2
 1.404970000000000E+10  -1.749768658047428E-1    1.413530694697627E2
 1.418215000000000E+10  -1.645045949502702E-1    1.264224538515600E2
 1.431460000000000E+10  -1.615041493625082E-1    1.119965296669531E2
 1.444705000000000E+10  -1.697219750288844E-1    9.793346774051655E1
 1.457950000000000E+10  -1.710055108575639E-1    8.422819238549619E1
 1.471195000000000E+10  -1.544315781931218E-1    7.076818120805265E1
 1.484440000000000E+10  -1.394805180289551E-1    5.765915754979218E1
 1.497685000000000E+10  -1.367103524158751E-1    4.470237685562149E1
 1.510930000000000E+10  -1.551199142771359E-1    3.163685438007264E1
 1.524175000000000E+10  -1.807695464815778E-1    1.814666484359959E1
 1.537420000000000E+10  -1.713871502568668E-1    4.416229255470846
 1.550665000000000E+10  -1.578739231977588E-1   -9.371735293147392
 1.563910000000000E+10  -1.733666778403636E-1   -2.338927041570132E1
 1.577155000000000E+10  -1.951584741236687E-1   -3.803910711896938E1
 1.590400000000000E+10  -1.996094618455680E-1   -5.323461190413025E1
 1.603645000000000E+10  -2.114473103029280E-1   -6.904853448096435E1
 1.616890000000000E+10  -2.356087822310598E-1   -8.550507568457058E1
 1.630135000000000E+10  -2.380094136156071E-1   -1.020801079728534E2
 1.643380000000000E+10  -2.266202165105077E-1   -1.191117930541581E2
 1.656625000000000E+10  -2.396328805517435E-1   -1.364073079338818E2
 1.669870000000000E+10  -2.621538436086691E-1   -1.541685001540089E2
 1.683115000000000E+10  -4.817026278189716E-1   -1.723780117926077E2
 1.696360000000000E+10  -2.512304766593175E-1    1.709433202788403E2
 1.709605000000000E+10  -2.324398423357496E-1    1.538386557710186E2
 1.722850000000000E+10  -2.261815561622090E-1    1.370186605965851E2
 1.736095000000000E+10  -2.378169574672279E-1    1.205145877441235E2
 1.749340000000000E+10  -2.349246178070588E-1    1.042055374125063E2
 1.762585000000000E+10  -2.154059448958826E-1    8.823592630516038E1
 1.775830000000000E+10  -2.031605196745588E-1    7.271345249799198E1
 1.789075000000000E+10  -1.969512869076005E-1    5.755650748945013E1
 1.802320000000000E+10  -1.917127729749213E-1    4.242117384521769E1
 1.815565000000000E+10  -1.954277229897572E-1    2.729048522677262E1
 1.828810000000000E+10  -1.980931068736873E-1    1.214977123968634E1
 1.842055000000000E+10  -1.893015478604144E-1   -3.092362572799182
 1.855300000000000E+10  -1.807191365602818E-1   -1.821188690187007E1
 1.868545000000000E+10  -1.830647533226334E-1   -3.332124528278664E1
 1.881790000000000E+10  -2.096754956949157E-1   -4.876595553781957E1
 1.895035000000000E+10  -2.303300555883436E-1   -6.367351062230958E1
 1.908280000000000E+10  -2.344488643614728E-1   -7.963624830621355E1
 1.921525000000000E+10  -2.352224722252175E-1   -9.535920239378746E1
 1.934770000000000E+10  -2.337413466005479E-1   -1.109333264873370E2
 1.948015000000000E+10  -2.700324369975891E-1   -1.265933818842518E2
 1.961260000000000E+10  -2.985918050452193E-1   -1.424992072672213E2
 1.974505000000000E+10  -2.943780272025214E-1   -1.584451480281264E2
 1.987750000000000E+10  -2.989987374376183E-1   -1.742640682944782E2
 2.000995000000000E+10  -2.933943898382521E-1    1.701148514979176E2
 2.014240000000000E+10  -3.126724084529565E-1    1.544457279034267E2
 2.027485000000000E+10  -3.130118309596552E-1    1.388384615173827E2
 2.040730000000000E+10  -3.089584975959341E-1    1.232389615566786E2
 2.053975000000000E+10  -3.018374552928011E-1    1.074695115301489E2
 2.067220000000000E+10  -2.923950783579632E-1    9.161793240002463E1
 2.080465000000000E+10  -2.833620165049534E-1    7.574521873853308E1
 2.093710000000000E+10  -2.752952184586384E-1    5.967828019139515E1
 2.106955000000000E+10  -2.652118994069017E-1    4.341001819017119E1
 2.120200000000000E+10  -2.546292281235322E-1    2.673289235908997E1
 2.133445000000000E+10  -2.367206041389740E-1    9.789400294562391
 2.146690000000000E+10  -2.093448290717379E-1   -7.127321180129238
 2.159935000000000E+10  -2.019399516503751E-1   -2.410321331700129E1
 2.173180000000000E+10  -2.491853918426656E-1   -4.176131252785969E1
 2.186425000000000E+10  -2.103750812807642E-1   -5.707212177066896E1
 2.199670000000000E+10  -1.816311732388057E-1   -7.414472624732433E1
 2.212915000000000E+10  -1.807904365100160E-1   -9.064219675790780E1
 2.226160000000000E+10  -1.896095268319515E-1   -1.066315932264173E2
 2.239405000000000E+10  -1.944730145939519E-1   -1.222456731557508E2
 2.252650000000000E+10  -2.104069356457752E-1   -1.371777239864943E2
 2.265895000000000E+10  -2.169588224035002E-1   -1.520068515604495E2
 2.279140000000000E+10  -2.169732806413302E-1   -1.661327983105105E2
 2.292385000000000E+10  -2.251901640515744E-1   -1.798537430042507E2
 2.305630000000000E+10  -2.396668197817448E-1    1.668064183390902E2
 2.318875000000000E+10  -2.472343193418721E-1    1.537591395925015E2
 2.332120000000000E+10  -2.684244513445045E-1    1.410403912214522E2
 2.345365000000000E+10  -2.744143754578487E-1    1.283164752406296E2
 2.358610000000000E+10  -2.621574488461051E-1    1.155745349708636E2
 2.371855000000000E+10  -2.568568060477655E-1    1.028800890314013E2
 2.385100000000000E+10  -2.804391661416713E-1    9.004534470476730E1
 2.398345000000000E+10  -2.804444850778181E-1    7.666018999928718E1
 2.411590000000000E+10  -2.714426004190207E-1    6.289532982160954E1
 2.424835000000000E+10  -2.729410281441691E-1    4.869934229812498E1
 2.438080000000000E+10  -2.818882708265819E-1    3.378602085197587E1
 2.451325000000000E+10  -2.744105182568625E-1    1.807879866895353E1
 2.464570000000000E+10  -2.849999657715727E-1    1.432790782683476
 2.477815000000000E+10  -3.059606467302208E-1   -1.619450715634894E1
 2.491060000000000E+10  -3.067597525227036E-1   -3.479173405569542E1
 2.504305000000000E+10  -2.910348594246996E-1   -5.380323484371240E1
 2.517550000000000E+10  -2.927431306102395E-1   -7.316621326867464E1
 2.530795000000000E+10  -3.169359463535229E-1   -9.284120798388233E1
 2.544040000000000E+10  -3.046313968782881E-1   -1.124247442091998E2
 2.557285000000000E+10  -2.689326361448090E-1   -1.314082283761135E2
 2.570530000000000E+10  -2.598347260539854E-1   -1.493977229000670E2
 2.583775000000000E+10  -2.698675031058964E-1   -1.663136513278760E2
 2.597020000000000E+10  -2.842143408624276E-1    1.776192900130678E2
 2.610265000000000E+10  -3.031766673418846E-1    1.619879778542469E2
 2.623510000000000E+10  -2.565199339622766E-1    1.488452673263874E2
 2.636755000000000E+10  -2.375022321125329E-1    1.352631415098416E2
 2.650000000000000E+10  -2.327022901531470E-1    1.222404446751289E2
