#  HZ   S   DB   R     50.00 
! Rohde & Schwarz Vector Network Analyzer 
! Rohde-Schwarz,ZNA26-4Port,1332450024101475,2.90
! Created: UTC 5/23/2025, 8:39:30 PM
! freq[Hz]                db:S33                  ang:S33
 1.000000000000000E7    -2.943676386952375E-1   -5.460837809470704
 1.599000000000000E7    -1.427542832579704E-1   -5.027579435643494
 2.198000000000000E7    -4.405554534108100E-2   -6.579947516875989
 2.797000000000000E7    -4.198234180718753E-2   -8.643929710056149
 3.396000000000000E7    -1.473868462981736E-2   -1.038903775693324E1
 3.995000000000000E7    -2.926638462069997E-2   -1.232685797232497E1
 4.594000000000000E7    -2.108476071128849E-2   -1.408256253853633E1
 5.193000000000000E7    -6.513317774376631E-2   -1.598847488784998E1
 5.792000000000000E7    -5.554800480057810E-2   -1.770213310983112E1
 6.391000000000000E7    -5.278207479581625E-2   -1.963978577708814E1
 6.990000000000000E7    -5.382245540078195E-2   -2.145579075710286E1
 7.589000000000000E7    -6.875085110215394E-2   -2.327805298542276E1
 8.188000000000000E7    -7.325902781466107E-2   -2.507611326441542E1
 8.787000000000000E7    -6.845429098823982E-2   -2.688674366403821E1
 9.386000000000000E7    -7.856100478352340E-2   -2.870101550420727E1
 9.985000000000000E7    -7.390580222623898E-2   -3.054144061594245E1
 1.058400000000000E8    -9.101697936993741E-2   -3.228118386228026E1
 1.118300000000000E8    -9.146348499144302E-2   -3.405151552799197E1
 1.178200000000000E8    -9.204428813543004E-2   -3.593321531009212E1
 1.238100000000000E8    -9.930526849400571E-2   -3.769512533351983E1
 1.298000000000000E8    -1.037207900000891E-1   -3.944093517926263E1
 1.357900000000000E8    -1.106039708978192E-1   -4.122445074825124E1
 1.417800000000000E8    -1.188743194107733E-1   -4.302392939997719E1
 1.477700000000000E8    -1.141994375586362E-1   -4.481572200979629E1
 1.537600000000000E8    -1.247612994145407E-1   -4.664074420071574E1
 1.597500000000000E8    -1.301141007916538E-1   -4.839938728997831E1
 1.657400000000000E8    -1.299085881648928E-1   -5.013901906543196E1
 1.717300000000000E8    -1.367182950000148E-1   -5.193103900191524E1
 1.777200000000000E8    -1.412488589434658E-1   -5.374330814833915E1
 1.837100000000000E8    -1.451047309391187E-1   -5.555916800637441E1
 1.897000000000000E8    -1.500994113506997E-1   -5.734798801571409E1
 1.956900000000000E8    -1.573597212615266E-1   -5.909139528169689E1
 2.016800000000000E8    -1.621752140867889E-1   -6.086255903540248E1
 2.076700000000000E8    -1.653533505763925E-1   -6.261260233574838E1
 2.136600000000000E8    -1.667605673231090E-1   -6.440269363480638E1
 2.196500000000000E8    -1.734690351835700E-1   -6.616049886149162E1
 2.256400000000000E8    -1.737032631514241E-1   -6.791783372952938E1
 2.316300000000000E8    -1.776031715888419E-1   -6.966997615695325E1
 2.376200000000000E8    -1.920769678448947E-1   -7.143878288411000E1
 2.436100000000000E8    -1.865221450979301E-1   -7.316000138769732E1
 2.496000000000000E8    -1.937580906979119E-1   -7.489879222418253E1
 2.555900000000000E8    -1.990753991170168E-1   -7.664958297554143E1
 2.615800000000000E8    -2.034013248269254E-1   -7.838309698342823E1
 2.675700000000000E8    -2.113265203692736E-1   -8.012759204528972E1
 2.735600000000000E8    -2.182035561336071E-1   -8.185762900356092E1
 2.795500000000000E8    -2.192807387571199E-1   -8.359439838894026E1
 2.855400000000000E8    -2.206226728647976E-1   -8.532595853681346E1
 2.915300000000000E8    -2.286881194862920E-1   -8.704373335174435E1
 2.975200000000000E8    -2.319131217904499E-1   -8.875692133957291E1
 3.035100000000000E8    -2.389139692531435E-1   -9.050781593034418E1
 3.095000000000000E8    -2.394915274930549E-1   -9.220924744647429E1
 3.154900000000000E8    -2.426404651460022E-1   -9.390325195915717E1
 3.214800000000000E8    -2.489297252999524E-1   -9.562230293282650E1
 3.274700000000000E8    -2.514855257237463E-1   -9.733704761683961E1
 3.334600000000000E8    -2.552941122362439E-1   -9.903049105571583E1
 3.394500000000000E8    -2.599197512549325E-1   -1.007173326078345E2
 3.454400000000000E8    -2.664454223169063E-1   -1.024006145932317E2
 3.514300000000000E8    -2.671149143607177E-1   -1.041074819528858E2
 3.574200000000000E8    -2.718158466966387E-1   -1.057538861086458E2
 3.634100000000000E8    -2.757074065980262E-1   -1.074729196107130E2
 3.694000000000000E8    -2.812246014820339E-1   -1.091408718938808E2
 3.753900000000000E8    -2.891950379597907E-1   -1.108280621323252E2
 3.813800000000000E8    -2.917431352733566E-1   -1.125018209162473E2
 3.873700000000000E8    -2.968292387728357E-1   -1.141725455052068E2
 3.933600000000000E8    -3.022287238283684E-1   -1.158184414465318E2
 3.993500000000000E8    -3.040162968790975E-1   -1.175058684831198E2
 4.053400000000000E8    -3.083604325635073E-1   -1.191544226092037E2
 4.113300000000000E8    -3.114939484360681E-1   -1.207915398222306E2
 4.173200000000000E8    -3.155589871678346E-1   -1.224411559168129E2
 4.233100000000000E8    -3.207040302104328E-1   -1.241075379205312E2
 4.293000000000000E8    -3.251834088809893E-1   -1.257313003124665E2
 4.352900000000000E8    -3.313785298314706E-1   -1.273729582186311E2
 4.412800000000000E8    -3.345483032185314E-1   -1.289982168919391E2
 4.472700000000000E8    -3.373378601553996E-1   -1.306205776568260E2
 4.532600000000000E8    -3.413487784074229E-1   -1.322315550942923E2
 4.592500000000000E8    -3.447031872077763E-1   -1.338415133825808E2
 4.652400000000000E8    -3.502602247962589E-1   -1.354536977807454E2
 4.712300000000000E8    -3.551671103563556E-1   -1.370640472527245E2
 4.772200000000000E8    -3.592012269796940E-1   -1.386645971172325E2
 4.832100000000000E8    -3.661813364313856E-1   -1.402586351747467E2
 4.892000000000000E8    -3.680759425975711E-1   -1.418547936512137E2
 4.951900000000000E8    -3.727253531673363E-1   -1.434719273245910E2
 5.011800000000000E8    -3.809644512009797E-1   -1.450684145144076E2
 5.071700000000000E8    -3.813692654816228E-1   -1.466379278050394E2
 5.131600000000000E8    -3.884508678370979E-1   -1.482458950727161E2
 5.191500000000000E8    -3.905936452124800E-1   -1.498016063706781E2
 5.251400000000000E8    -3.991384604820282E-1   -1.513919317409413E2
 5.311300000000000E8    -4.022756769665653E-1   -1.529573061163381E2
 5.371200000000000E8    -4.081597732596934E-1   -1.545090481837823E2
 5.431100000000000E8    -4.109174475378266E-1   -1.560654456482851E2
 5.491000000000000E8    -4.184568648038576E-1   -1.575875672046925E2
 5.550900000000000E8    -4.196776380656634E-1   -1.591280072576758E2
 5.610800000000000E8    -4.244771227874783E-1   -1.606685511787507E2
 5.670700000000000E8    -4.291245962951450E-1   -1.621822022163805E2
 5.730600000000000E8    -4.345286771287077E-1   -1.637044733105092E2
 5.790500000000000E8    -4.411455661665248E-1   -1.652343855127360E2
 5.850400000000000E8    -4.459145711710361E-1   -1.667511216179016E2
 5.910300000000000E8    -4.530714837656326E-1   -1.682616796271689E2
 5.970200000000000E8    -4.594615123273953E-1   -1.697524759922522E2
 6.030100000000000E8    -4.656956307031377E-1   -1.712692412238983E2
 6.090000000000000E8    -4.732413221842359E-1   -1.727714831071665E2
 6.149900000000000E8    -4.795037432830401E-1   -1.742681768039631E2
 6.209800000000000E8    -4.835124475972542E-1   -1.757645922417417E2
 6.269700000000000E8    -4.874004644172159E-1   -1.772699885940500E2
 6.329600000000000E8    -4.901008929268965E-1   -1.787539768169127E2
 6.389500000000000E8    -4.946947004267773E-1    1.797774266362653E2
 6.449400000000000E8    -4.976451857086567E-1    1.783009655486289E2
 6.509300000000000E8    -5.031575417564598E-1    1.768459980743644E2
 6.569200000000000E8    -5.102359537371161E-1    1.754027257953641E2
 6.629100000000000E8    -5.146412222255340E-1    1.739444832515279E2
 6.689000000000000E8    -5.203018315495276E-1    1.725013332787956E2
 6.748900000000000E8    -5.285416033512806E-1    1.710599047396517E2
 6.808800000000000E8    -5.338241260531547E-1    1.696375571619966E2
 6.868700000000000E8    -5.360267248396321E-1    1.681977986049917E2
 6.928600000000000E8    -5.478160764399221E-1    1.667667695852628E2
 6.988500000000000E8    -5.541747895782861E-1    1.653368916718980E2
 7.048400000000000E8    -5.598440576325637E-1    1.639057932465034E2
 7.108300000000000E8    -5.699593075079574E-1    1.624908130291443E2
 7.168200000000000E8    -5.783317619335597E-1    1.610770984156929E2
 7.228100000000000E8    -5.825592374948840E-1    1.596606505120585E2
 7.288000000000000E8    -5.914427830214132E-1    1.582279348417376E2
 7.347900000000000E8    -5.971191874274161E-1    1.568443803060899E2
 7.407800000000000E8    -6.062969628524552E-1    1.554287076023148E2
 7.467700000000000E8    -6.108442736435117E-1    1.540242305122390E2
 7.527600000000000E8    -6.164375133681125E-1    1.526500894743352E2
 7.587500000000000E8    -6.262913389744555E-1    1.512699436055065E2
 7.647400000000000E8    -6.310624843674253E-1    1.499182706845839E2
 7.707300000000000E8    -6.397369747824933E-1    1.485520234579700E2
 7.767200000000000E8    -6.456934017811446E-1    1.472090182082482E2
 7.827100000000000E8    -6.519675844989679E-1    1.458655438420820E2
 7.887000000000000E8    -6.595724371603466E-1    1.445258526386187E2
 7.946900000000000E8    -6.654959781205638E-1    1.431845493415324E2
 8.006800000000000E8    -6.749751027792232E-1    1.418406491219156E2
 8.066700000000000E8    -6.843911428832865E-1    1.405025428815013E2
 8.126600000000000E8    -6.922007881441067E-1    1.391452280302951E2
 8.186500000000000E8    -6.999588753451323E-1    1.378018673700729E2
 8.246400000000000E8    -7.085038968457165E-1    1.364642508781559E2
 8.306300000000000E8    -7.156861441044824E-1    1.351157874546681E2
 8.366200000000000E8    -7.244238767116904E-1    1.337860991974805E2
 8.426100000000000E8    -7.324886943365849E-1    1.324501431695088E2
 8.486000000000000E8    -7.432755740009057E-1    1.311101191302826E2
 8.545900000000000E8    -7.490233222694663E-1    1.297835756390777E2
 8.605800000000000E8    -7.595593515339271E-1    1.284643444363189E2
 8.665700000000000E8    -7.701418168280159E-1    1.271551058896832E2
 8.725600000000000E8    -7.796655050462200E-1    1.258480108455093E2
 8.785500000000000E8    -7.888640670650102E-1    1.245751699628336E2
 8.845400000000000E8    -7.965139446853309E-1    1.233032935070108E2
 8.905300000000000E8    -8.073121542552879E-1    1.220132898130553E2
 8.965200000000000E8    -8.164063617211182E-1    1.207565951230381E2
 9.025100000000000E8    -8.277805512465501E-1    1.194867266146657E2
 9.085000000000000E8    -8.390553877300865E-1    1.182183218359276E2
 9.144900000000000E8    -8.496902350594706E-1    1.169576693997990E2
 9.204800000000000E8    -8.624096767113769E-1    1.156708391003453E2
 9.264700000000000E8    -8.713649570207115E-1    1.144028941189055E2
 9.324600000000000E8    -8.855262718322409E-1    1.131148345212457E2
 9.384500000000000E8    -8.958171355594934E-1    1.118365345221400E2
 9.444400000000000E8    -9.079191503690677E-1    1.105628502938921E2
 9.504300000000000E8    -9.185431421854563E-1    1.092855504571885E2
 9.564200000000000E8    -9.292010703702633E-1    1.080300178769404E2
 9.624100000000000E8    -9.445485292627098E-1    1.067439021990217E2
 9.684000000000000E8    -9.550082838565681E-1    1.054876928860555E2
 9.743900000000000E8    -9.658447658171254E-1    1.042320587303487E2
 9.803800000000000E8    -9.790669048541474E-1    1.029936131678314E2
 9.863700000000000E8    -9.929427592610189E-1    1.017642054401165E2
 9.923600000000000E8    -1.006785599911186       1.005251526826266E2
 9.983500000000000E8    -1.020522425185828       9.932795488005407E1
 1.004340000000000E9    -1.037896859685748       9.811206086754315E1
 1.010330000000000E9    -1.050433166550117       9.689211278751482E1
 1.016320000000000E9    -1.066616588234603       9.568245713544611E1
 1.022310000000000E9    -1.083074133919699       9.446326423927339E1
 1.028300000000000E9    -1.098559449778807       9.325314524079252E1
 1.034290000000000E9    -1.114708855053536       9.203637375689247E1
 1.040280000000000E9    -1.132093839231657       9.080773414758372E1
 1.046270000000000E9    -1.147652889222345       8.958978148998023E1
 1.052260000000000E9    -1.165039304896370       8.835748821919309E1
 1.058250000000000E9    -1.181192915707822       8.714552981747696E1
 1.064240000000000E9    -1.197676922796044       8.591688967237877E1
 1.070230000000000E9    -1.214027926103973       8.470243238445744E1
 1.076220000000000E9    -1.230935003372355       8.349105570885818E1
 1.082210000000000E9    -1.247401369200886       8.228652727199240E1
 1.088200000000000E9    -1.263340608209105       8.109044845435238E1
 1.094190000000000E9    -1.281172508394730       7.990282357935959E1
 1.100180000000000E9    -1.298544157666143       7.872115382870972E1
 1.106170000000000E9    -1.318388463075863       7.753550996674841E1
 1.112160000000000E9    -1.338138783090263       7.635317080875410E1
 1.118150000000000E9    -1.355671314846038       7.515902688936211E1
 1.124140000000000E9    -1.378412102466871       7.397805871861975E1
 1.130130000000000E9    -1.399449393989876       7.277838206765333E1
 1.136120000000000E9    -1.423171392520492       7.157327490010742E1
 1.142110000000000E9    -1.446677876251236       7.036970690256597E1
 1.148100000000000E9    -1.471958222632139       6.915861379707525E1
 1.154090000000000E9    -1.492720202782225       6.795069902181937E1
 1.160080000000000E9    -1.518548007317275       6.673946631536039E1
 1.166070000000000E9    -1.544259890253149       6.552862769701484E1
 1.172060000000000E9    -1.568677728482951       6.430144743764650E1
 1.178050000000000E9    -1.592696802366393       6.309514505770798E1
 1.184040000000000E9    -1.618464559707371       6.190329365669879E1
 1.190030000000000E9    -1.643024627714866       6.070105955572225E1
 1.196020000000000E9    -1.668779009276695       5.949940694916494E1
 1.202010000000000E9    -1.695599355837930       5.833884113256798E1
 1.208000000000000E9    -1.720890995759444       5.716200057915326E1
 1.213990000000000E9    -1.750204572693992       5.599551959659638E1
 1.219980000000000E9    -1.780104664733634       5.483592957190675E1
 1.225970000000000E9    -1.810137292485576       5.364808339966656E1
 1.231960000000000E9    -1.841165736661093       5.248876342679886E1
 1.237950000000000E9    -1.873592434712085       5.131566492579792E1
 1.243940000000000E9    -1.906584565549788       5.013152958549474E1
 1.249930000000000E9    -1.942129818497038       4.891767053028522E1
 1.255920000000000E9    -1.977751263228762       4.772171236451818E1
 1.261910000000000E9    -2.012443262606420       4.652532899961022E1
 1.267900000000000E9    -2.047199427863643       4.532260879431153E1
 1.273890000000000E9    -2.086840700785145       4.410227764783796E1
 1.279880000000000E9    -2.121343852402254       4.290131029669084E1
 1.285870000000000E9    -2.158276587566417       4.169877332947866E1
 1.291860000000000E9    -2.195126590634172       4.048607441071381E1
 1.297850000000000E9    -2.233903449859127       3.931290774185801E1
 1.303840000000000E9    -2.273392367310514       3.813783542037014E1
 1.309830000000000E9    -2.314465136042315       3.694948852006967E1
 1.315820000000000E9    -2.354386009515787       3.579285071372014E1
 1.321810000000000E9    -2.396626661260396       3.461264028629286E1
 1.327800000000000E9    -2.439189827054433       3.344194123412012E1
 1.333790000000000E9    -2.480316109282418       3.226333253406098E1
 1.339780000000000E9    -2.526337050773344       3.107212339208695E1
 1.345770000000000E9    -2.574132105531795       2.989998358905127E1
 1.351760000000000E9    -2.624273397577397       2.871853472252161E1
 1.357750000000000E9    -2.669748122260612       2.750693031909921E1
 1.363740000000000E9    -2.721636357959107       2.631731954749620E1
 1.369730000000000E9    -2.769292657545088       2.509470766094201E1
 1.375720000000000E9    -2.820341629560116       2.387733461371930E1
 1.381710000000000E9    -2.872051438956985       2.263816814646719E1
 1.387700000000000E9    -2.921750366723503       2.139994496739677E1
 1.393690000000000E9    -2.974647874893485       2.014184319030022E1
 1.399680000000000E9    -3.030691116475076       1.892335483789314E1
 1.405670000000000E9    -3.083486119937779       1.769921813135610E1
 1.411660000000000E9    -3.139834592547925       1.650362493751729E1
 1.417650000000000E9    -3.196000419748092       1.529296904323116E1
 1.423640000000000E9    -3.256578308918580       1.408686474276873E1
 1.429630000000000E9    -3.315090360439207       1.290337643224752E1
 1.435620000000000E9    -3.380015011518390       1.170232317180544E1
 1.441610000000000E9    -3.440318808812838       1.050378728901912E1
 1.447600000000000E9    -3.508585872655519       9.288193067217174
 1.453590000000000E9    -3.573566475454689       8.072643572536863
 1.459580000000000E9    -3.646023379960326       6.843427183239595
 1.465570000000000E9    -3.717106267508236       5.624947670659738
 1.471560000000000E9    -3.791129084495306       4.381941179824033
 1.477550000000000E9    -3.863776711965428       3.151905967926616
 1.483540000000000E9    -3.938872435638734       1.897290981508286
 1.489530000000000E9    -4.012320733092340       6.452757716849051E-1
 1.495520000000000E9    -4.087110195947547      -6.274228433440083E-1
 1.501510000000000E9    -4.162999703728135      -1.893511696819711
 1.507500000000000E9    -4.236291207545754      -3.158407975685660
 1.513490000000000E9    -4.310027074385393      -4.428077307278666
 1.519480000000000E9    -4.387782574483835      -5.696801505279874
 1.525470000000000E9    -4.468737036772883      -6.950826162726634
 1.531460000000000E9    -4.551450685214881      -8.224719972341680
 1.537450000000000E9    -4.634782562503973      -9.477264032575709
 1.543440000000000E9    -4.722982942116101      -1.075229958880286E1
 1.549430000000000E9    -4.813870739683142      -1.200412328583383E1
 1.555420000000000E9    -4.909621594055545      -1.328547153447855E1
 1.561410000000000E9    -5.005413570256624      -1.453677869836470E1
 1.567400000000000E9    -5.104371487082168      -1.582623003262898E1
 1.573390000000000E9    -5.206807777373195      -1.712724798602919E1
 1.579380000000000E9    -5.312353789420515      -1.842411632435244E1
 1.585370000000000E9    -5.415070525089392      -1.974072100792986E1
 1.591360000000000E9    -5.519666512473762      -2.107474335706631E1
 1.597350000000000E9    -5.624780950121140      -2.243670165057215E1
 1.603340000000000E9    -5.730578947020132      -2.379906251810386E1
 1.609330000000000E9    -5.836466827360600      -2.518602103800125E1
 1.615320000000000E9    -5.946387702333119      -2.658408407666126E1
 1.621310000000000E9    -6.059016049110823      -2.793834767001684E1
 1.627300000000000E9    -6.171216448944987      -2.931111706873030E1
 1.633290000000000E9    -6.287667025274303      -3.067241126670530E1
 1.639280000000000E9    -6.404111900090451      -3.203657370062685E1
 1.645270000000000E9    -6.524662901434435      -3.339431077454311E1
 1.651260000000000E9    -6.648469617776012      -3.477323882805942E1
 1.657250000000000E9    -6.778036162066281      -3.613057955416954E1
 1.663240000000000E9    -6.907977714502119      -3.751057687090596E1
 1.669230000000000E9    -7.040670809691445      -3.892213270129343E1
 1.675220000000000E9    -7.181450569594562      -4.037263170458499E1
 1.681210000000000E9    -7.324837854371266      -4.183485732221885E1
 1.687200000000000E9    -7.469627269347987      -4.328682162300233E1
 1.693190000000000E9    -7.616208742977840      -4.481740646073671E1
 1.699180000000000E9    -7.772635139657003      -4.633924787833339E1
 1.705170000000000E9    -7.920275953897336      -4.786308577217067E1
 1.711160000000000E9    -8.071005659722619      -4.944670388444575E1
 1.717150000000000E9    -8.217732044487013      -5.105050016806181E1
 1.723140000000000E9    -8.372621379476834      -5.264096704073081E1
