#  HZ   S   DB   R     50.00 
! Rohde & Schwarz Vector Network Analyzer 
! Rohde-Schwarz,ZNA26-4Port,1332450024101475,2.90
! Created: UTC 5/23/2025, 8:17:47 PM
! freq[Hz]                db:S33                  ang:S33
 1.000000000000000E7     2.801696389924614E-1   -1.798609166671374E2
 1.424500000000000E8    -5.744604658133069E-2    1.629768967942458E2
 2.749000000000000E8    -1.003077422158502E-1    1.475313368506616E2
 4.073500000000000E8    -1.136933770824748E-1    1.321395781131390E2
 5.398000000000000E8    -1.232383493793378E-1    1.168234460899552E2
 6.722500000000000E8    -1.285038741212258E-1    1.014723179775042E2
 8.047000000000000E8    -1.327208677361979E-1    8.609529279594864E1
 9.371500000000000E8    -1.300875095828281E-1    7.059843163012947E1
 1.069600000000000E9    -1.255435913461406E-1    5.511997769209318E1
 1.202050000000000E9    -1.151072857425976E-1    3.961492129815819E1
 1.334500000000000E9    -1.080233404501258E-1    2.415106976971841E1
 1.466950000000000E9    -1.078450581777715E-1    8.557173423198600
 1.599400000000000E9    -1.086453106922909E-1   -7.119150146948719
 1.731850000000000E9    -1.075635910227744E-1   -2.295826696319838E1
 1.864300000000000E9    -1.078084254882564E-1   -3.861892378589327E1
 1.996750000000000E9    -1.077997146784892E-1   -5.418746708676142E1
 2.129200000000000E9    -1.246334406296842E-1   -6.960245414716498E1
 2.261650000000000E9    -1.280993289005263E-1   -8.531057053165198E1
 2.394100000000000E9    -1.273867458536817E-1   -1.010263472873352E2
 2.526550000000000E9    -1.279236823034504E-1   -1.165992958351206E2
 2.659000000000000E9    -1.269446907497224E-1   -1.319580063681068E2
 2.791450000000000E9    -1.270439004529270E-1   -1.471284480009470E2
 2.923900000000000E9    -1.344154723280770E-1   -1.623356107145621E2
 3.056350000000000E9    -1.435826766086257E-1   -1.777079770052533E2
 3.188800000000000E9    -1.530485400701569E-1    1.667993136655558E2
 3.321250000000000E9    -1.455823442542042E-1    1.515253869354232E2
 3.453700000000000E9    -1.418577505870351E-1    1.364987388676769E2
 3.586150000000000E9    -1.457114208207821E-1    1.215273127680718E2
 3.718600000000000E9    -1.593260687232607E-1    1.063435988917042E2
 3.851050000000000E9    -1.605749540479992E-1    9.095129429020517E1
 3.983500000000000E9    -1.572984078239154E-1    7.553674558212640E1
 4.115950000000000E9    -1.415389922659896E-1    6.032689192968564E1
 4.248400000000000E9    -1.382343736096973E-1    4.526716220041610E1
 4.380850000000000E9    -1.416635418681040E-1    3.000922003045344E1
 4.513300000000000E9    -1.449448057006787E-1    1.446806621716110E1
 4.645750000000000E9    -1.436950444977314E-1   -1.346895600346898
 4.778200000000000E9    -1.372220243286848E-1   -1.714934658895562E1
 4.910650000000000E9    -1.237995581471270E-1   -3.281285643981996E1
 5.043100000000000E9    -1.200217699378015E-1   -4.840493459736211E1
 5.175550000000000E9    -1.320809423900883E-1   -6.422791327479042E1
 5.308000000000000E9    -1.410253247857884E-1   -8.042242045490585E1
 5.440450000000000E9    -1.372454721956598E-1   -9.667710281470174E1
 5.572900000000000E9    -1.193747926071903E-1   -1.126672397652216E2
 5.705350000000000E9    -1.137517879878453E-1   -1.282099279615747E2
 5.837800000000000E9    -1.192621564364033E-1   -1.436346737230618E2
 5.970250000000000E9    -1.337212900834025E-1   -1.590946475594749E2
 6.102700000000000E9    -1.348464435118155E-1   -1.746267421282364E2
 6.235150000000000E9    -1.304630629400101E-1    1.701662098899747E2
 6.367600000000000E9    -1.221753326087127E-1    1.553461275633212E2
 6.500050000000000E9    -1.227490235016823E-1    1.408007594424639E2
 6.632500000000000E9    -1.344805430084024E-1    1.262962107210486E2
 6.764950000000000E9    -1.495342674932281E-1    1.115691394506855E2
 6.897400000000000E9    -1.517563632639332E-1    9.666234688040784E1
 7.029850000000000E9    -1.421488671273969E-1    8.185934797759775E1
 7.162300000000000E9    -1.378635702219007E-1    6.717170984939301E1
 7.294750000000000E9    -1.463110123304157E-1    5.234311445503312E1
 7.427200000000000E9    -1.600543795908220E-1    3.710971853982789E1
 7.559650000000000E9    -1.723725564530674E-1    2.135829966698455E1
 7.692100000000000E9    -1.653497031871858E-1    5.265587850013909
 7.824550000000000E9    -1.608053252655034E-1   -1.088131629904887E1
 7.957000000000000E9    -1.560469995888580E-1   -2.711014752286638E1
 8.089450000000000E9    -1.594569896423409E-1   -4.350160185041268E1
 8.221900000000000E9    -1.683199271644336E-1   -6.023371250791268E1
 8.354350000000000E9    -1.656103917802128E-1   -7.718073436863517E1
 8.486800000000000E9    -1.461321020822404E-1   -9.397785719511586E1
 8.619250000000000E9    -1.302826848049942E-1   -1.103294743328364E2
 8.751700000000000E9    -1.312248719933897E-1   -1.263866035858292E2
 8.884150000000000E9    -1.312710774485143E-1   -1.423164849633484E2
 9.016600000000000E9    -1.304061559331329E-1   -1.580922199956804E2
 9.149050000000000E9    -1.195698338047831E-1   -1.734858290800079E2
 9.281500000000000E9    -1.115098616356165E-1    1.715785600740457E2
 9.413950000000000E9    -1.086595420209639E-1    1.571686259895401E2
 9.546400000000000E9    -1.120628567563429E-1    1.429747539000500E2
 9.678850000000000E9    -1.217606798109197E-1    1.288695024248314E2
 9.811300000000000E9    -1.250589856983849E-1    1.148298513740068E2
 9.943750000000000E9    -1.174549996667596E-1    1.010213016665881E2
 1.007620000000000E+10  -1.145448458234754E-1    8.740059944348403E1
 1.020865000000000E+10  -1.216919857317483E-1    7.381174043687598E1
 1.034110000000000E+10  -1.483811748557426E-1    6.000173868557373E1
 1.047355000000000E+10  -1.512909142395255E-1    4.578164722285138E1
 1.060600000000000E+10  -1.496389357347949E-1    3.138886376555988E1
 1.073845000000000E+10  -1.537869369455070E-1    1.671969804044747E1
 1.087090000000000E+10  -1.759626261808266E-1    1.758737920597333
 1.100335000000000E+10  -1.818789045689703E-1   -1.376057700538101E1
 1.113580000000000E+10  -1.980028000422137E-1   -2.991544270128385E1
 1.126825000000000E+10  -2.098985827347264E-1   -4.653808931734069E1
 1.140070000000000E+10  -2.123635162453493E-1   -6.363019866268166E1
 1.153315000000000E+10  -2.114402032938345E-1   -8.082947757454815E1
 1.166560000000000E+10  -2.159451482287423E-1   -9.836566378259664E1
 1.179805000000000E+10  -2.267990947099171E-1   -1.160980531745036E2
 1.193050000000000E+10  -2.224210034226970E-1   -1.338709969891213E2
 1.206295000000000E+10  -2.076031636426618E-1   -1.511683188069960E2
 1.219540000000000E+10  -1.872295335088505E-1   -1.679412893128532E2
 1.232785000000000E+10  -2.017892861899412E-1    1.758005408178297E2
 1.246030000000000E+10  -2.057602683299921E-1    1.598197559047212E2
 1.259275000000000E+10  -1.913847541237750E-1    1.441863474880318E2
 1.272520000000000E+10  -1.795140390632116E-1    1.293576575751722E2
 1.285765000000000E+10  -1.706679098079570E-1    1.150656567535681E2
 1.299010000000000E+10  -1.593386507285590E-1    1.010833969165759E2
 1.312255000000000E+10  -1.514471718962755E-1    8.740839115973510E1
 1.325500000000000E+10  -1.429024226861150E-1    7.395780456798097E1
 1.338745000000000E+10  -1.629479215919801E-1    6.039356724716244E1
 1.351990000000000E+10  -1.440502038551308E-1    4.690904979064010E1
 1.365235000000000E+10  -1.314197508933618E-1    3.351098827136376E1
 1.378480000000000E+10  -1.320869705761915E-1    1.999791059350070E1
 1.391725000000000E+10  -1.591003679210431E-1    6.008840925027825
 1.404970000000000E+10  -1.715246997473819E-1   -8.667809475607218
 1.418215000000000E+10  -1.699988424651802E-1   -2.380791919180575E1
 1.431460000000000E+10  -1.677682728225582E-1   -3.931335637374350E1
 1.444705000000000E+10  -1.713253418957405E-1   -5.530527741096260E1
 1.457950000000000E+10  -1.943702787479364E-1   -7.197224518630766E1
 1.471195000000000E+10  -2.225606132660521E-1   -8.941251288494033E1
 1.484440000000000E+10  -2.323088858063137E-1   -1.073282915665425E2
 1.497685000000000E+10  -2.299296868230047E-1   -1.254112773932592E2
 1.510930000000000E+10  -2.208835321261806E-1   -1.432648879182604E2
 1.524175000000000E+10  -2.246813963557116E-1   -1.609564474059079E2
 1.537420000000000E+10  -2.413076937533187E-1   -1.786828658799688E2
 1.550665000000000E+10  -2.441364079731765E-1    1.637920664289780E2
 1.563910000000000E+10  -2.161188686548528E-1    1.468813417004436E2
 1.577155000000000E+10  -1.911855668818496E-1    1.307154726382688E2
 1.590400000000000E+10  -1.909442703365821E-1    1.151414818710179E2
 1.603645000000000E+10  -1.974471494013105E-1    9.987997048827971E1
 1.616890000000000E+10  -2.010125882271480E-1    8.485431572443785E1
 1.630135000000000E+10  -1.987591838143915E-1    6.998577190073829E1
 1.643380000000000E+10  -1.793749036313742E-1    5.555117919276351E1
 1.656625000000000E+10  -1.672821244537060E-1    4.143277549406499E1
 1.669870000000000E+10  -1.866951698350543E-1    2.738248905864557E1
 1.683115000000000E+10  -2.066655343993723E-1    1.300998117573724E1
 1.696360000000000E+10  -2.055631620776309E-1   -1.548105668641954
 1.709605000000000E+10  -1.997005373970570E-1   -1.628017606380781E1
 1.722850000000000E+10  -2.045982117060714E-1   -3.098504970811380E1
 1.736095000000000E+10  -1.977229768274903E-1   -4.591158620868127E1
 1.749340000000000E+10  -2.240714613856778E-1   -6.108226610036846E1
 1.762585000000000E+10  -2.540348408445049E-1   -7.683041764890075E1
 1.775830000000000E+10  -2.502598971541958E-1   -9.293700442074065E1
 1.789075000000000E+10  -2.345675849179975E-1   -1.090314147680951E2
 1.802320000000000E+10  -2.392885160402308E-1   -1.249595954222852E2
 1.815565000000000E+10  -2.599994832806400E-1   -1.410074372807973E2
 1.828810000000000E+10  -2.687658630093352E-1   -1.572692925388669E2
 1.842055000000000E+10  -2.865241551880522E-1   -1.735028120929875E2
 1.855300000000000E+10  -2.806142684567134E-1    1.705937238601039E2
 1.868545000000000E+10  -2.662432253510701E-1    1.551073433537885E2
 1.881790000000000E+10  -2.806929691932891E-1    1.398921131294584E2
 1.895035000000000E+10  -2.664926786380955E-1    1.247631963335161E2
 1.908280000000000E+10  -2.684381585334956E-1    1.096600935635892E2
 1.921525000000000E+10  -2.462652916173101E-1    9.478655502259497E1
 1.934770000000000E+10  -2.281357346351029E-1    8.019859544887470E1
 1.948015000000000E+10  -2.047394219766233E-1    6.589684021700910E1
 1.961260000000000E+10  -2.012828082383935E-1    5.155173246178806E1
 1.974505000000000E+10  -2.210169911295055E-1    3.701765982981165E1
 1.987750000000000E+10  -2.137401901024233E-1    2.229991315110512E1
 2.000995000000000E+10  -1.882465137322048E-1    7.631047103605100
 2.014240000000000E+10  -1.672304022777822E-1   -7.070559078634745
 2.027485000000000E+10  -1.775213598009276E-1   -2.205992206421448E1
 2.040730000000000E+10  -1.941987108758284E-1   -3.740989309729169E1
 2.053975000000000E+10  -2.105531982395457E-1   -5.309136013555397E1
 2.067220000000000E+10  -2.166449901032390E-1   -6.888028174854567E1
 2.080465000000000E+10  -2.170665509416165E-1   -8.477019129852768E1
 2.093710000000000E+10  -2.384776589826605E-1   -1.006892548200446E2
 2.106955000000000E+10  -2.588491527196323E-1   -1.162551244227593E2
 2.120200000000000E+10  -2.820994349201971E-1   -1.322189848615928E2
 2.133445000000000E+10  -3.153801327905312E-1   -1.479269683887311E2
 2.146690000000000E+10  -3.301581799649827E-1   -1.635289105356605E2
 2.159935000000000E+10  -3.281406708701812E-1   -1.788220563867039E2
 2.173180000000000E+10  -3.241094768498352E-1    1.663775766279125E2
 2.186425000000000E+10  -3.465439215385016E-1    1.517324366708401E2
 2.199670000000000E+10  -3.774524384150721E-1    1.370637137282766E2
 2.212915000000000E+10  -3.687365689296211E-1    1.225350573423151E2
 2.226160000000000E+10  -3.385389607694450E-1    1.080549943436903E2
 2.239405000000000E+10  -3.267253305675255E-1    9.387123630446411E1
 2.252650000000000E+10  -3.162410326389513E-1    7.965486706252504E1
 2.265895000000000E+10  -3.305126502730167E-1    6.491823034592795E1
 2.279140000000000E+10  -3.289861895148748E-1    4.982140273287121E1
 2.292385000000000E+10  -3.072133267230946E-1    3.418344431319168E1
 2.305630000000000E+10  -2.661383900080027E-1    1.892411816557456E1
 2.318875000000000E+10  -2.640103304883218E-1    2.793958782158140
 2.332120000000000E+10  -2.728388266047044E-1   -1.409990024065677E1
 2.345365000000000E+10  -2.684496267291430E-1   -3.168630148091955E1
 2.358610000000000E+10  -2.640893081721921E-1   -4.951456545745980E1
 2.371855000000000E+10  -2.487560513829515E-1   -6.745415142121966E1
 2.385100000000000E+10  -2.349897269896937E-1   -8.535910482026337E1
 2.398345000000000E+10  -2.521565390239386E-1   -1.031783085194597E2
 2.411590000000000E+10  -2.977577891593650E-1   -1.211364682977621E2
 2.424835000000000E+10  -2.904878256671928E-1   -1.387583475736095E2
 2.438080000000000E+10  -2.617216921303908E-1   -1.555721039413886E2
 2.451325000000000E+10  -2.562817358317495E-1   -1.715010662599078E2
 2.464570000000000E+10  -2.685175321770368E-1    1.730688707712697E2
 2.477815000000000E+10  -2.813329693366765E-1    1.580732505295965E2
 2.491060000000000E+10  -2.930623500746379E-1    1.434429817256100E2
 2.504305000000000E+10  -2.770093350081198E-1    1.292531144688616E2
 2.517550000000000E+10  -2.582790238294208E-1    1.155098875493791E2
 2.530795000000000E+10  -2.584063675059592E-1    1.022925849522273E2
 2.544040000000000E+10  -2.789027896183867E-1    8.885760172639067E1
 2.557285000000000E+10  -2.857667967598900E-1    7.510865137889584E1
 2.570530000000000E+10  -3.054215397126412E-1    6.122379118277187E1
 2.583775000000000E+10  -2.889590716792880E-1    4.717616480752653E1
 2.597020000000000E+10  -2.855760453058795E-1    3.287384375427629E1
 2.610265000000000E+10  -3.187663096696966E-1    1.809006493408157E1
 2.623510000000000E+10  -3.433996643838069E-1    2.233974194387065
 2.636755000000000E+10  -3.456803137052415E-1   -1.455270627890313E1
 2.650000000000000E+10  -3.534065815382188E-1   -3.205758015448504E1
